Time Stamp,ID,Extended,Dir,Bus,LEN,D1,D2,D3,D4,D5,D6,D7,D8
262002083,00000166,false,Rx,0,4,D0,32,00,09,00,00,00,00,
262003172,00000158,false,Rx,0,8,00,00,00,00,00,00,00,0A,
262003179,00000161,false,Rx,0,8,00,00,05,50,01,08,00,0D,
262003184,00000191,false,Rx,0,7,01,00,90,A1,41,00,30,00,
262003188,0000018E,false,Rx,0,3,00,00,5C,00,00,00,00,00,
262004226,00000133,false,Rx,0,5,00,00,00,00,98,00,00,00,
262004244,00000136,false,Rx,0,8,00,02,00,00,00,00,00,1B,
262004251,0000013A,false,Rx,0,8,00,00,00,00,00,00,00,19,
262004255,0000013F,false,Rx,0,8,00,00,00,05,00,00,00,1F,
262004260,00000164,false,Rx,0,8,00,00,C0,1A,A8,00,00,31,
262005330,0000017C,false,Rx,0,8,00,00,00,00,10,00,00,12,
262006406,00000183,false,Rx,0,8,00,00,00,0E,00,00,10,1C,
262007482,00000039,false,Rx,0,2,00,0C,00,00,00,00,00,00,
262007489,00000143,false,Rx,0,4,6B,6B,00,D1,00,00,00,00,
262008564,00000095,false,Rx,0,8,80,00,07,F4,00,00,00,08,
262011771,00000166,false,Rx,0,4,D0,32,00,18,00,00,00,00,
262012845,00000158,false,Rx,0,8,00,00,00,00,00,00,00,19,
262012851,00000161,false,Rx,0,8,00,00,05,50,01,08,00,1C,
262012856,00000191,false,Rx,0,7,01,00,90,A1,41,00,03,00,
262013925,00000164,false,Rx,0,8,00,00,C0,1A,A8,00,00,04,
262013932,00000133,false,Rx,0,5,00,00,00,00,A7,00,00,00,
262013937,00000136,false,Rx,0,8,00,02,00,00,00,00,00,2A,
262013942,0000013A,false,Rx,0,8,00,00,00,00,00,00,00,28,
262013947,0000013F,false,Rx,0,8,00,00,00,05,00,00,00,2E,
262015021,0000017C,false,Rx,0,8,00,00,00,00,10,00,00,21,
262015029,0000018E,false,Rx,0,3,00,00,6B,00,00,00,00,00,
262015034,000001CF,false,Rx,0,6,80,05,00,00,00,3C,00,00,
262015039,000001DC,false,Rx,0,4,02,00,00,39,00,00,00,00,
262015044,00000320,false,Rx,0,3,00,00,30,00,00,00,00,00,
262015052,00000324,false,Rx,0,8,74,65,00,00,00,00,0E,38,
262016123,00000183,false,Rx,0,8,00,00,00,0A,00,00,10,2F,
262016128,0000037C,false,Rx,0,8,FD,00,FD,00,09,7F,00,38,
262017215,00000143,false,Rx,0,4,6B,6B,00,E0,00,00,00,00,
262018294,00000095,false,Rx,0,8,80,00,07,F4,00,00,00,17,
262019367,000001A4,false,Rx,0,8,00,00,00,08,00,00,00,10,
262019373,000001AA,false,Rx,0,8,7F,FF,00,00,00,00,68,10,
262020445,000001B0,false,Rx,0,7,00,0F,00,00,00,01,57,00,
262020452,000001D0,false,Rx,0,8,00,00,00,00,00,00,00,0A,
262020457,00000039,false,Rx,0,2,00,1B,00,00,00,00,00,00,
262021526,00000166,false,Rx,0,4,D0,32,00,27,00,00,00,00,
262022602,00000158,false,Rx,0,8,00,00,00,00,00,00,00,28,
262022607,00000161,false,Rx,0,8,00,00,05,50,01,08,00,2B,
262023677,00000191,false,Rx,0,7,01,00,90,A1,41,00,12,00,
262023683,00000164,false,Rx,0,8,00,00,C0,1A,A8,00,00,13,
262023687,00000133,false,Rx,0,5,00,00,00,00,B6,00,00,00,
262023692,00000136,false,Rx,0,8,00,02,00,00,00,00,00,39,
262024766,0000013A,false,Rx,0,8,00,00,00,00,00,00,00,37,
262024772,0000013F,false,Rx,0,8,00,00,00,05,00,00,00,3D,
262024776,0000017C,false,Rx,0,8,00,00,00,00,10,00,00,30,
262024782,0000018E,false,Rx,0,3,00,00,7A,00,00,00,00,00,
262024787,00000294,false,Rx,0,8,04,0B,00,02,CF,5A,00,0E,
262025857,0000021E,false,Rx,0,7,03,E8,37,45,22,06,01,00,
262025863,00000183,false,Rx,0,8,00,00,00,0F,00,00,10,39,
262026938,00000143,false,Rx,0,4,6B,6B,00,FF,00,00,00,00,
262029079,00000095,false,Rx,0,8,80,00,07,F4,00,00,00,26,
262031215,00000166,false,Rx,0,4,D0,32,00,36,00,00,00,00,
262032288,00000158,false,Rx,0,8,00,00,00,00,00,00,00,37,
262033359,00000161,false,Rx,0,8,00,00,05,50,01,08,00,3A,
262033365,00000164,false,Rx,0,8,00,00,C0,1A,A8,00,00,22,
262033369,00000191,false,Rx,0,7,01,00,90,A1,41,00,21,00,
262033375,00000133,false,Rx,0,5,00,00,00,00,89,00,00,00,
262034445,00000136,false,Rx,0,8,00,02,00,00,00,00,00,0C,
262034451,0000013A,false,Rx,0,8,00,00,00,00,00,00,00,0A,
262034455,0000013F,false,Rx,0,8,00,00,00,05,00,00,00,00,
262034461,0000017C,false,Rx,0,8,00,00,00,00,10,00,00,03,
262034465,0000018E,false,Rx,0,3,00,00,4D,00,00,00,00,00,
262035535,000001CF,false,Rx,0,6,80,05,00,00,00,0F,00,00,
262035540,000001DC,false,Rx,0,4,02,00,00,0C,00,00,00,00,
262035545,00000183,false,Rx,0,8,00,00,00,0B,00,00,10,00,
262036624,00000143,false,Rx,0,4,6B,6B,00,C2,00,00,00,00,
262038757,00000095,false,Rx,0,8,80,00,07,F4,00,00,00,35,
262039829,000001A4,false,Rx,0,8,00,00,00,08,00,00,00,2F,
262039835,000001AA,false,Rx,0,8,7F,FF,00,00,00,00,68,2F,
262039840,000001B0,false,Rx,0,7,00,0F,00,00,00,01,66,00,
262039846,000001D0,false,Rx,0,8,00,00,00,00,00,00,00,0A,
262041984,00000166,false,Rx,0,4,D0,32,00,09,00,00,00,00,
262043053,00000158,false,Rx,0,8,00,00,00,00,00,00,00,0A,
262043059,00000161,false,Rx,0,8,00,00,05,50,01,08,00,0D,
262043065,00000191,false,Rx,0,7,01,00,90,A1,41,00,30,00,
262043070,00000164,false,Rx,0,8,00,00,C0,1A,A8,00,00,31,
262044142,00000133,false,Rx,0,5,00,00,00,00,98,00,00,00,
262044148,00000136,false,Rx,0,8,00,02,00,00,00,00,00,1B,
262044153,00000039,false,Rx,0,2,00,2A,00,00,00,00,00,00,
262044157,0000013A,false,Rx,0,8,00,00,00,00,00,00,00,19,
262044161,0000013F,false,Rx,0,8,00,00,00,05,00,00,00,1F,
262045217,0000017C,false,Rx,0,8,00,00,00,00,10,00,00,12,
262045223,0000018E,false,Rx,0,3,00,00,5C,00,00,00,00,00,
262045227,00000309,false,Rx,0,8,00,00,00,00,00,00,00,84,
262046298,00000183,false,Rx,0,8,00,00,00,08,00,00,10,12,
262047384,00000143,false,Rx,0,4,6B,6B,00,D1,00,00,00,00,
262048433,00000095,false,Rx,0,8,80,00,07,F4,00,00,00,08,
262051640,00000166,false,Rx,0,4,D0,32,00,18,00,00,00,00,
262052721,00000158,false,Rx,0,8,00,00,00,00,00,00,00,19,
262052729,00000161,false,Rx,0,8,00,00,05,50,01,08,00,1C,
262052739,00000191,false,Rx,0,7,01,00,90,A1,41,00,03,00,
262053812,00000164,false,Rx,0,8,00,00,C0,1A,A8,00,00,04,
262053817,00000133,false,Rx,0,5,00,00,00,00,A7,00,00,00,
262053822,00000136,false,Rx,0,8,00,02,00,00,00,00,00,2A,
262053827,0000013A,false,Rx,0,8,00,00,00,00,00,00,00,28,
262054904,0000013F,false,Rx,0,8,00,00,00,05,00,00,00,2E,
262054913,0000017C,false,Rx,0,8,00,00,00,00,10,00,00,21,
262054919,0000018E,false,Rx,0,3,00,00,6B,00,00,00,00,00,
262054925,000001CF,false,Rx,0,6,80,05,00,00,00,1E,00,00,
262054931,000001DC,false,Rx,0,4,02,00,00,1B,00,00,00,00,
262056006,00000183,false,Rx,0,8,00,00,00,06,00,00,10,23,
262057082,00000143,false,Rx,0,4,6B,6B,00,E0,00,00,00,00,
262057087,00000039,false,Rx,0,2,00,39,00,00,00,00,00,00,
262058156,00000095,false,Rx,0,8,80,00,07,F4,00,00,00,17,
262059222,000001A4,false,Rx,0,8,00,00,00,08,00,00,00,3E,
262060299,000001AA,false,Rx,0,8,7F,FF,00,00,00,00,67,3F,
262060308,000001B0,false,Rx,0,7,00,0F,00,00,00,01,75,00,
262060314,000001D0,false,Rx,0,8,00,00,00,00,00,00,00,0A,
262061390,00000166,false,Rx,0,4,D0,32,00,27,00,00,00,00,
262062461,00000158,false,Rx,0,8,00,00,00,00,00,00,00,28,
262063540,00000161,false,Rx,0,8,00,00,05,50,01,08,00,2B,
262063549,00000191,false,Rx,0,7,01,00,90,A1,41,00,12,00,
262063553,00000164,false,Rx,0,8,00,00,C0,1A,A8,00,00,13,
262063560,00000133,false,Rx,0,5,00,00,00,00,B6,00,00,00,
262063566,00000136,false,Rx,0,8,00,02,00,00,00,00,00,39,
262064635,0000013A,false,Rx,0,8,00,00,00,00,00,00,00,37,
262064639,0000013F,false,Rx,0,8,00,00,00,05,00,00,00,3D,
262064642,0000017C,false,Rx,0,8,00,00,00,00,10,00,00,30,
262064647,0000018E,false,Rx,0,3,00,00,7A,00,00,00,00,00,
262065716,00000294,false,Rx,0,8,04,0B,00,02,CF,5A,00,1D,
262065721,0000021E,false,Rx,0,7,03,E8,37,45,22,06,10,00,
262065724,00000183,false,Rx,0,8,00,00,00,04,00,00,10,34,
262066793,00000143,false,Rx,0,4,6B,6B,00,FF,00,00,00,00,
262068932,00000095,false,Rx,0,8,80,00,07,F4,00,00,00,26,
262071072,00000166,false,Rx,0,4,D0,32,00,36,00,00,00,00,
262072145,00000039,false,Rx,0,2,00,0C,00,00,00,00,00,00,
262073222,00000158,false,Rx,0,8,00,00,00,00,00,00,00,37,
262073229,00000161,false,Rx,0,8,00,00,05,50,01,08,00,3A,
262073237,00000164,false,Rx,0,8,00,00,C0,1A,A8,00,00,22,
262073242,00000191,false,Rx,0,7,01,00,90,A1,41,00,21,00,
262073249,00000133,false,Rx,0,5,00,00,00,00,89,00,00,00,
262074327,00000136,false,Rx,0,8,00,02,00,00,00,00,00,0C,
262074334,0000013A,false,Rx,0,8,00,00,00,00,00,00,00,0A,
262074340,0000013F,false,Rx,0,8,00,00,00,05,00,00,00,00,
262074347,0000017C,false,Rx,0,8,00,00,00,00,10,00,00,03,
262074357,0000018E,false,Rx,0,3,00,00,4D,00,00,00,00,00,
262075442,000001CF,false,Rx,0,6,80,05,00,00,00,2D,00,00,
262075457,000001DC,false,Rx,0,4,02,00,00,2A,00,00,00,00,
262075465,00000183,false,Rx,0,8,00,00,00,0A,00,00,10,01,
262077616,00000143,false,Rx,0,4,6B,6B,00,C2,00,00,00,00,
262078694,00000095,false,Rx,0,8,80,00,07,F4,00,00,00,35,
262079777,000001A4,false,Rx,0,8,00,00,00,08,00,00,00,01,
262079786,000001AA,false,Rx,0,8,7F,FF,00,00,00,00,67,02,
262079793,000001B0,false,Rx,0,7,00,0F,00,00,00,01,48,00,
262079798,000001D0,false,Rx,0,8,00,00,00,00,00,00,00,0A,
262081945,00000166,false,Rx,0,4,D0,32,00,09,00,00,00,00,
262083023,00000158,false,Rx,0,8,00,00,00,00,00,00,00,0A,
262083032,00000161,false,Rx,0,8,00,00,05,50,01,08,00,0D,
262083038,00000191,false,Rx,0,7,01,00,90,A1,41,00,30,00,
262083045,00000164,false,Rx,0,8,00,00,C0,1A,A8,00,00,31,
262084123,00000133,false,Rx,0,5,00,00,00,00,98,00,00,00,
262084131,00000136,false,Rx,0,8,00,02,00,00,00,00,00,1B,
262084138,0000013A,false,Rx,0,8,00,00,00,00,00,00,00,19,
262084144,0000013F,false,Rx,0,8,00,00,00,05,00,00,00,1F,
262085227,0000017C,false,Rx,0,8,00,00,00,00,10,00,00,12,
262085239,0000018E,false,Rx,0,3,00,00,5C,00,00,00,00,00,
262085246,00000039,false,Rx,0,2,00,1B,00,00,00,00,00,00,
262086324,00000183,false,Rx,0,8,00,00,00,07,00,00,10,13,
262087402,00000143,false,Rx,0,4,6B,6B,00,D1,00,00,00,00,
262088479,00000095,false,Rx,0,8,80,00,07,F4,00,00,00,08,
262091694,00000166,false,Rx,0,4,D0,32,00,18,00,00,00,00,
262092770,00000158,false,Rx,0,8,00,00,00,00,00,00,00,19,
262092778,00000161,false,Rx,0,8,00,00,05,50,01,08,00,1C,
262092785,00000191,false,Rx,0,7,01,00,90,A1,41,00,03,00,
262093859,00000164,false,Rx,0,8,00,00,C0,1A,A8,00,00,04,
262093867,00000133,false,Rx,0,5,00,00,00,00,A7,00,00,00,
262093874,00000136,false,Rx,0,8,00,02,00,00,00,00,00,2A,
262093881,0000013A,false,Rx,0,8,00,00,00,00,00,00,00,28,
262094957,0000013F,false,Rx,0,8,00,00,00,05,00,00,00,2E,
262094965,0000017C,false,Rx,0,8,00,00,00,00,10,00,00,21,
262094972,0000018E,false,Rx,0,3,00,00,6B,00,00,00,00,00,
262094978,000001CF,false,Rx,0,6,80,05,00,00,00,3C,00,00,
262094984,000001DC,false,Rx,0,4,02,00,00,39,00,00,00,00,
262096058,00000183,false,Rx,0,8,00,00,00,05,00,00,10,24,
262097134,00000143,false,Rx,0,4,6B,6B,00,E0,00,00,00,00,
262097142,00000333,false,Rx,0,7,00,00,00,00,00,00,0F,00,
262098218,00000095,false,Rx,0,8,80,00,07,F4,00,00,00,17,
262099294,00000039,false,Rx,0,2,00,2A,00,00,00,00,00,00,
262099303,000001A4,false,Rx,0,8,00,00,00,08,00,00,00,10,
262099309,00000305,false,Rx,0,2,80,17,00,00,00,00,00,00,
262100385,000001AA,false,Rx,0,8,7F,FF,00,00,00,00,68,10,
262100394,000001B0,false,Rx,0,7,00,0F,00,00,00,01,57,00,
262100401,000001D0,false,Rx,0,8,00,00,00,00,00,00,00,0A,
262101484,00000166,false,Rx,0,4,D0,32,00,27,00,00,00,00,
262102561,00000158,false,Rx,0,8,00,00,00,00,00,00,00,28,
262102569,00000161,false,Rx,0,8,00,00,05,50,01,08,00,2B,
262103641,00000191,false,Rx,0,7,01,00,90,A1,41,00,12,00,
262103649,0000018E,false,Rx,0,3,00,00,7A,00,00,00,00,00,
262103654,00000133,false,Rx,0,5,00,00,00,00,B6,00,00,00,
262103660,00000136,false,Rx,0,8,00,02,00,00,00,00,00,39,
262104731,0000013A,false,Rx,0,8,00,00,00,00,00,00,00,37,
262104740,0000013F,false,Rx,0,8,00,00,00,05,00,00,00,3D,
262104746,00000164,false,Rx,0,8,00,00,C0,1A,A8,00,00,13,
262104752,0000017C,false,Rx,0,8,00,00,00,00,10,00,00,30,
262104758,00000294,false,Rx,0,8,04,0B,00,02,CF,5A,00,2C,
262105833,0000021E,false,Rx,0,7,03,E8,37,45,22,06,2F,00,
262105841,00000183,false,Rx,0,8,00,00,00,0B,00,00,10,3D,
262106911,00000143,false,Rx,0,4,6B,6B,00,FF,00,00,00,00,
262109055,00000095,false,Rx,0,8,80,00,07,F4,00,00,00,26,
262111219,00000039,false,Rx,0,2,00,39,00,00,00,00,00,00,
262111229,00000166,false,Rx,0,4,D0,32,00,36,00,00,00,00,
262112299,00000158,false,Rx,0,8,00,00,00,00,00,00,00,37,
262113377,00000161,false,Rx,0,8,00,00,05,50,01,08,00,3A,
262113386,00000191,false,Rx,0,7,01,00,10,A1,41,00,29,00,
262113392,00000164,false,Rx,0,8,00,00,C0,1A,A8,00,00,22,
262113399,00000133,false,Rx,0,5,00,00,00,00,89,00,00,00,
262114473,00000136,false,Rx,0,8,00,02,00,00,00,00,00,0C,
262114478,0000013A,false,Rx,0,8,00,00,00,00,00,00,00,0A,
262114483,0000013F,false,Rx,0,8,00,00,00,05,00,00,00,00,
262114487,0000017C,false,Rx,0,8,00,00,00,00,10,00,00,03,
262114491,0000018E,false,Rx,0,3,00,00,4D,00,00,00,00,00,
262115573,000001CF,false,Rx,0,6,80,05,00,00,00,0F,00,00,
262115581,000001DC,false,Rx,0,4,02,00,00,0C,00,00,00,00,
262115587,00000320,false,Rx,0,3,00,00,03,00,00,00,00,00,
262115594,00000183,false,Rx,0,8,00,00,00,08,00,00,10,03,
262115600,00000324,false,Rx,0,8,74,65,00,00,00,00,0E,0B,
262116669,0000037C,false,Rx,0,8,FD,00,FD,00,09,7F,00,0B,
262116673,00000143,false,Rx,0,4,6B,6B,00,C2,00,00,00,00,
262118808,00000095,false,Rx,0,8,80,00,07,F4,00,00,00,35,
262119885,000001A4,false,Rx,0,8,00,00,00,08,00,00,00,2F,
262119893,000001AA,false,Rx,0,8,7F,FF,00,00,00,00,68,2F,
262119900,000001B0,false,Rx,0,7,00,0F,00,00,00,01,66,00,
262119906,000001D0,false,Rx,0,8,00,00,00,00,00,00,00,0A,
262122049,00000166,false,Rx,0,4,D0,32,00,09,00,00,00,00,
262123149,00000158,false,Rx,0,8,00,00,00,00,00,00,00,0A,
262123159,00000161,false,Rx,0,8,00,00,05,50,01,08,00,0D,
262123165,00000191,false,Rx,0,7,01,00,10,A1,41,00,38,00,
262123171,0000018E,false,Rx,0,3,00,00,5C,00,00,00,00,00,
262124226,00000133,false,Rx,0,5,00,00,00,00,98,00,00,00,
262124234,00000136,false,Rx,0,8,00,02,00,00,00,00,00,1B,
262124243,0000013A,false,Rx,0,8,00,00,00,00,00,00,00,19,
262124250,0000013F,false,Rx,0,8,00,00,00,05,00,00,00,1F,
262124256,00000164,false,Rx,0,8,00,00,C0,1A,A8,00,00,31,
262125334,0000017C,false,Rx,0,8,00,00,00,00,10,00,00,12,
262126414,00000183,false,Rx,0,8,00,00,00,06,00,00,10,14,
262126422,00000039,false,Rx,0,2,00,0C,00,00,00,00,00,00,
262127497,00000143,false,Rx,0,4,6B,6B,00,D1,00,00,00,00,
262128577,00000095,false,Rx,0,8,80,00,07,F4,00,00,00,08,
262131789,00000166,false,Rx,0,4,D0,32,00,18,00,00,00,00,
262132866,00000158,false,Rx,0,8,00,00,00,00,00,00,00,19,
262132874,00000161,false,Rx,0,8,00,00,05,50,01,08,00,1C,
262132881,00000191,false,Rx,0,7,01,00,10,A1,41,00,0B,00,
262133952,00000164,false,Rx,0,8,00,00,C0,1A,A8,00,00,04,
262133960,00000133,false,Rx,0,5,00,00,00,00,A7,00,00,00,
262133964,00000136,false,Rx,0,8,00,02,00,00,00,00,00,2A,
262133967,0000013A,false,Rx,0,8,00,00,00,00,00,00,00,28,
262133971,0000013F,false,Rx,0,8,00,00,00,05,00,00,00,2E,
262135039,0000017C,false,Rx,0,8,00,00,00,00,10,00,00,21,
262135043,0000018E,false,Rx,0,3,00,00,6B,00,00,00,00,00,
262135047,000001CF,false,Rx,0,6,80,05,00,00,00,1E,00,00,
262135050,000001DC,false,Rx,0,4,02,00,00,1B,00,00,00,00,
262136121,00000183,false,Rx,0,8,00,00,00,04,00,00,10,25,
262137214,00000143,false,Rx,0,4,6B,6B,00,E0,00,00,00,00,
262138294,00000095,false,Rx,0,8,80,00,07,F4,00,00,00,17,
262139370,000001A4,false,Rx,0,8,00,00,00,08,00,00,00,3E,
262139379,00000039,false,Rx,0,2,00,1B,00,00,00,00,00,00,
262140455,000001AA,false,Rx,0,8,7F,FF,00,00,00,00,67,3F,
262140464,000001B0,false,Rx,0,7,00,0F,00,00,00,01,75,00,
262140470,000001D0,false,Rx,0,8,00,00,00,00,00,00,00,0A,
262141545,00000166,false,Rx,0,4,D0,32,00,27,00,00,00,00,
262142622,00000158,false,Rx,0,8,00,00,00,00,00,00,00,28,
262142630,00000161,false,Rx,0,8,00,00,05,50,01,08,00,2B,
262143702,00000191,false,Rx,0,7,01,00,10,A1,41,00,1A,00,
262143709,00000164,false,Rx,0,8,00,00,C0,1A,A8,00,00,13,
262143714,00000133,false,Rx,0,5,00,00,00,00,B6,00,00,00,
262143720,00000136,false,Rx,0,8,00,02,00,00,00,00,00,39,
262144796,0000013A,false,Rx,0,8,00,00,00,00,00,00,00,37,
262144804,0000013F,false,Rx,0,8,00,00,00,05,00,00,00,3D,
262144811,0000017C,false,Rx,0,8,00,00,00,00,10,00,00,30,
262144817,0000018E,false,Rx,0,3,00,00,7A,00,00,00,00,00,
262144823,00000294,false,Rx,0,8,04,0B,00,02,CF,5A,00,3B,
262145896,0000021E,false,Rx,0,7,03,E8,37,45,22,06,3E,00,
262145904,00000309,false,Rx,0,8,00,00,00,00,00,00,00,93,
262145911,00000183,false,Rx,0,8,00,00,00,03,00,00,10,35,
262146982,00000143,false,Rx,0,4,6B,6B,00,FF,00,00,00,00,
262149124,00000095,false,Rx,0,8,80,00,07,F4,00,00,00,26,
262151286,00000166,false,Rx,0,4,D0,32,00,36,00,00,00,00,
262152361,00000158,false,Rx,0,8,00,00,00,00,00,00,00,37,
262153434,00000161,false,Rx,0,8,00,00,05,50,01,08,00,3A,
262153443,00000039,false,Rx,0,2,00,2A,00,00,00,00,00,00,
262153453,00000191,false,Rx,0,7,01,00,10,A1,41,00,29,00,
262153460,00000164,false,Rx,0,8,00,00,C0,1A,A8,00,00,22,
262153465,00000133,false,Rx,0,5,00,00,00,00,89,00,00,00,
262154542,00000136,false,Rx,0,8,00,02,00,00,00,00,00,0C,
262154552,0000013A,false,Rx,0,8,00,00,00,00,00,00,00,0A,
262154558,0000013F,false,Rx,0,8,00,00,00,05,00,00,00,00,
262154563,0000017C,false,Rx,0,8,00,00,00,00,10,00,00,03,
262154569,0000018E,false,Rx,0,3,00,00,4D,00,00,00,00,00,
262155643,000001CF,false,Rx,0,6,80,05,00,00,00,2D,00,00,
262155651,000001DC,false,Rx,0,4,02,00,00,2A,00,00,00,00,
262155658,00000183,false,Rx,0,8,00,00,00,0A,00,00,10,01,
262156732,00000143,false,Rx,0,4,6B,6B,00,C2,00,00,00,00,
262158875,00000095,false,Rx,0,8,80,00,07,F4,00,00,00,35,
262159950,000001A4,false,Rx,0,8,00,00,00,08,00,00,00,01,
262159957,000001AA,false,Rx,0,8,7F,FF,00,00,00,00,67,02,
262159963,000001B0,false,Rx,0,7,00,0F,00,00,00,01,48,00,
262159970,000001D0,false,Rx,0,8,00,00,00,00,00,00,00,0A,
262161042,00000166,false,Rx,0,4,D0,32,00,09,00,00,00,00,
262163187,00000158,false,Rx,0,8,00,00,00,00,00,00,00,0A,
262163204,00000161,false,Rx,0,8,00,00,05,50,01,08,00,0D,
262163210,00000191,false,Rx,0,7,01,00,10,A1,41,00,38,00,
262163216,0000018E,false,Rx,0,3,00,00,5C,00,00,00,00,00,
262164293,00000133,false,Rx,0,5,00,00,00,00,98,00,00,00,
262164301,00000136,false,Rx,0,8,00,02,00,00,00,00,00,1B,
262164306,0000013A,false,Rx,0,8,00,00,00,00,00,00,00,19,
262164312,0000013F,false,Rx,0,8,00,00,00,05,00,00,00,1F,
262164318,00000164,false,Rx,0,8,00,00,C0,1A,A8,00,00,31,
262165392,0000017C,false,Rx,0,8,00,00,00,00,10,00,00,12,
262166467,00000183,false,Rx,0,8,00,00,00,07,00,00,10,13,
262167538,00000143,false,Rx,0,4,6B,6B,00,D1,00,00,00,00,
262168627,00000095,false,Rx,0,8,80,00,07,F4,00,00,00,08,
262168642,00000039,false,Rx,0,2,00,39,00,00,00,00,00,00,
262171868,00000166,false,Rx,0,4,D0,32,00,18,00,00,00,00,
262172952,00000158,false,Rx,0,8,00,00,00,00,00,00,00,19,
262172962,00000161,false,Rx,0,8,00,00,05,50,01,08,00,1C,
262172967,00000191,false,Rx,0,7,01,00,10,A1,41,00,0B,00,
262174064,00000164,false,Rx,0,8,00,00,C0,1A,A8,00,00,04,
262174077,00000133,false,Rx,0,5,00,00,00,00,A7,00,00,00,
262174086,00000136,false,Rx,0,8,00,02,00,00,00,00,00,2A,
262174092,0000013A,false,Rx,0,8,00,00,00,00,00,00,00,28,
262174097,0000013F,false,Rx,0,8,00,00,00,05,00,00,00,2E,
262175175,0000017C,false,Rx,0,8,00,00,00,00,10,00,00,21,
262175185,0000018E,false,Rx,0,3,00,00,6B,00,00,00,00,00,
262175193,000001CF,false,Rx,0,6,80,05,00,00,00,3C,00,00,
262175211,000001DC,false,Rx,0,4,02,00,00,39,00,00,00,00,
262175219,00000183,false,Rx,0,8,00,00,00,05,00,00,10,24,
262177356,00000143,false,Rx,0,4,6B,6B,00,E0,00,00,00,00,
262178433,00000095,false,Rx,0,8,80,00,07,F4,00,00,00,17,
262179504,000001A4,false,Rx,0,8,00,00,00,08,00,00,00,10,
262179509,000001AA,false,Rx,0,8,7F,FF,00,00,00,00,68,10,
262179514,000001B0,false,Rx,0,7,00,0F,00,00,00,01,57,00,
262180590,000001D0,false,Rx,0,8,00,00,00,00,00,00,00,0A,
262181664,00000166,false,Rx,0,4,D0,32,00,27,00,00,00,00,
262181672,00000039,false,Rx,0,2,00,0C,00,00,00,00,00,00,
262182746,00000158,false,Rx,0,8,00,00,00,00,00,00,00,28,
262182753,00000161,false,Rx,0,8,00,00,05,50,01,08,00,2B,
262182758,00000191,false,Rx,0,7,01,00,10,A1,41,00,1A,00,
262183828,00000164,false,Rx,0,8,00,00,C0,1A,A8,00,00,13,
262183834,00000133,false,Rx,0,5,00,00,00,00,B6,00,00,00,
262183839,00000136,false,Rx,0,8,00,02,00,00,00,00,00,39,
262183843,0000013A,false,Rx,0,8,00,00,00,00,00,00,00,37,
262184910,0000013F,false,Rx,0,8,00,00,00,05,00,00,00,3D,
262184914,0000017C,false,Rx,0,8,00,00,00,00,10,00,00,30,
262184919,0000018E,false,Rx,0,3,00,00,7A,00,00,00,00,00,
262184923,00000294,false,Rx,0,8,04,0B,00,02,CF,5A,00,0E,
262185991,0000021E,false,Rx,0,7,03,E8,37,45,22,06,01,00,
262185998,00000183,false,Rx,0,8,00,00,00,03,00,00,10,35,
262187070,00000143,false,Rx,0,4,6B,6B,00,FF,00,00,00,00,
262189218,00000095,false,Rx,0,8,80,00,07,F4,00,00,00,26,
262191362,00000166,false,Rx,0,4,D0,32,00,36,00,00,00,00,
262192443,00000158,false,Rx,0,8,00,00,00,00,00,00,00,37,
262193519,00000161,false,Rx,0,8,00,00,05,50,01,08,00,3A,
262193527,00000191,false,Rx,0,7,01,00,10,A1,41,00,29,00,
262193534,0000018E,false,Rx,0,3,00,00,4D,00,00,00,00,00,
262193540,00000133,false,Rx,0,5,00,00,00,00,89,00,00,00,
262193545,00000136,false,Rx,0,8,00,02,00,00,00,00,00,0C,
262194625,0000013A,false,Rx,0,8,00,00,00,00,00,00,00,0A,
262194632,0000013F,false,Rx,0,8,00,00,00,05,00,00,00,00,
262194639,00000164,false,Rx,0,8,00,00,C0,1A,A8,00,00,22,
262194646,0000017C,false,Rx,0,8,00,00,00,00,10,00,00,03,
262195723,000001CF,false,Rx,0,6,80,05,00,00,00,0F,00,00,
262195731,000001DC,false,Rx,0,4,02,00,00,0C,00,00,00,00,
262195737,00000183,false,Rx,0,8,00,00,00,02,00,00,10,09,
262196812,00000143,false,Rx,0,4,6B,6B,00,C2,00,00,00,00,
262197883,00000333,false,Rx,0,7,00,00,00,00,00,00,1E,00,
262198956,00000095,false,Rx,0,8,80,00,07,F4,00,00,00,35,
262200028,000001A4,false,Rx,0,8,00,00,00,08,00,00,00,2F,
262200033,000001AA,false,Rx,0,8,7F,FF,00,00,00,00,68,2F,
262200038,000001B0,false,Rx,0,7,00,0F,00,00,00,01,66,00,
262200042,00000039,false,Rx,0,2,00,1B,00,00,00,00,00,00,
262200045,000001D0,false,Rx,0,8,00,00,00,00,00,00,00,0A,
262201122,00000305,false,Rx,0,2,80,26,00,00,00,00,00,00,
262201130,00000166,false,Rx,0,4,D0,32,00,09,00,00,00,00,
262203284,00000158,false,Rx,0,8,00,00,00,00,00,00,00,0A,
262203293,00000161,false,Rx,0,8,00,00,05,50,01,08,00,0D,
262203303,00000191,false,Rx,0,7,01,00,10,A1,41,00,38,00,
262203310,0000018E,false,Rx,0,3,00,00,5C,00,00,00,00,00,
262203316,00000133,false,Rx,0,5,00,00,00,00,98,00,00,00,
262204390,00000136,false,Rx,0,8,00,02,00,00,00,00,00,1B,
262204399,0000013A,false,Rx,0,8,00,00,00,00,00,00,00,19,
262204406,0000013F,false,Rx,0,8,00,00,00,05,00,00,00,1F,
262204412,00000164,false,Rx,0,8,00,00,C0,1A,A8,00,00,31,
262205487,0000017C,false,Rx,0,8,00,00,00,00,10,00,00,12,
262206566,00000183,false,Rx,0,8,00,00,00,09,00,00,10,11,
262206574,00000143,false,Rx,0,4,6B,6B,00,D1,00,00,00,00,
262208720,00000095,false,Rx,0,8,80,00,07,F4,00,00,00,08,
262211930,00000166,false,Rx,0,4,D0,32,00,18,00,00,00,00,
262213006,00000158,false,Rx,0,8,00,00,00,00,00,00,00,19,
262213014,00000161,false,Rx,0,8,00,00,05,50,01,08,00,1C,
262213020,00000191,false,Rx,0,7,01,00,10,A1,41,00,0B,00,
262214093,00000164,false,Rx,0,8,00,00,C0,1A,A8,00,00,04,
262214104,00000133,false,Rx,0,5,00,00,00,00,A7,00,00,00,
262214112,00000136,false,Rx,0,8,00,02,00,00,00,00,00,2A,
262214120,0000013A,false,Rx,0,8,00,00,00,00,00,00,00,28,
262214128,0000013F,false,Rx,0,8,00,00,00,05,00,00,00,2E,
262215210,0000017C,false,Rx,0,8,00,00,00,00,10,00,00,21,
262215219,0000018E,false,Rx,0,3,00,00,6B,00,00,00,00,00,
262215225,000001CF,false,Rx,0,6,80,05,00,00,00,1E,00,00,
262215230,00000039,false,Rx,0,2,00,2A,00,00,00,00,00,00,
262215236,000001DC,false,Rx,0,4,02,00,00,1B,00,00,00,00,
262215242,00000320,false,Rx,0,3,00,00,12,00,00,00,00,00,
262216312,00000183,false,Rx,0,8,00,00,00,06,00,00,10,23,
262216318,00000324,false,Rx,0,8,74,65,00,00,00,00,0E,1A,
262216323,0000037C,false,Rx,0,8,FD,00,FD,00,09,7F,00,1A,
262216328,0000040C,false,Rx,0,8,02,36,32,32,39,53,30,39,
262216332,00000454,false,Rx,0,3,23,EF,36,00,00,00,00,00,
262217404,00000143,false,Rx,0,4,6B,6B,00,E0,00,00,00,00,
262218479,00000095,false,Rx,0,8,80,00,07,F4,00,00,00,17,
262219555,000001A4,false,Rx,0,8,00,00,00,08,00,00,00,3E,
262219562,000001AA,false,Rx,0,8,7F,FF,00,00,00,00,67,3F,
262220637,000001B0,false,Rx,0,7,00,0F,00,00,00,01,75,00,
262220645,000001D0,false,Rx,0,8,00,00,00,00,00,00,00,0A,
262221723,00000166,false,Rx,0,4,D0,32,00,27,00,00,00,00,
262222798,00000158,false,Rx,0,8,00,00,00,00,00,00,00,28,
262222807,00000161,false,Rx,0,8,00,00,05,50,01,08,00,2B,
262222813,00000191,false,Rx,0,7,01,00,10,A1,41,00,1A,00,
262223887,00000133,false,Rx,0,5,00,00,00,00,B6,00,00,00,
262223895,00000136,false,Rx,0,8,00,02,00,00,00,00,00,39,
262223902,0000013A,false,Rx,0,8,00,00,00,00,00,00,00,37,
262223907,0000013F,false,Rx,0,8,00,00,00,05,00,00,00,3D,
262224980,00000164,false,Rx,0,8,00,00,C0,1A,A8,00,00,13,
262224989,0000017C,false,Rx,0,8,00,00,00,00,10,00,00,30,
262224995,0000018E,false,Rx,0,3,00,00,7A,00,00,00,00,00,
262225002,00000294,false,Rx,0,8,04,0B,00,02,CF,5A,00,1D,
262225007,0000021E,false,Rx,0,7,03,E8,37,45,22,06,10,00,
262226082,00000183,false,Rx,0,8,00,00,00,04,00,00,10,34,
262227173,00000143,false,Rx,0,4,6B,6B,00,FF,00,00,00,00,
262228249,00000095,false,Rx,0,8,80,00,07,F4,00,00,00,26,
262229326,00000039,false,Rx,0,2,00,39,00,00,00,00,00,00,
262231474,00000166,false,Rx,0,4,D0,32,00,36,00,00,00,00,
262232548,00000158,false,Rx,0,8,00,00,00,00,00,00,00,37,
262232554,00000161,false,Rx,0,8,00,00,05,50,01,08,00,3A,
262233626,00000191,false,Rx,0,7,01,00,10,A1,41,00,29,00,
262233633,00000164,false,Rx,0,8,00,00,C0,1A,A8,00,00,22,
262233639,00000133,false,Rx,0,5,00,00,00,00,89,00,00,00,
262233646,00000136,false,Rx,0,8,00,02,00,00,00,00,00,0C,
262233651,0000013A,false,Rx,0,8,00,00,00,00,00,00,00,0A,
262234728,0000013F,false,Rx,0,8,00,00,00,05,00,00,00,00,
262234736,0000017C,false,Rx,0,8,00,00,00,00,10,00,00,03,
262234743,0000018E,false,Rx,0,3,00,00,4D,00,00,00,00,00,
262234748,000001CF,false,Rx,0,6,80,05,00,00,00,2D,00,00,
262234754,000001DC,false,Rx,0,4,02,00,00,2A,00,00,00,00,
262235826,00000183,false,Rx,0,8,00,00,00,0A,00,00,10,01,
262236906,00000143,false,Rx,0,4,6B,6B,00,C2,00,00,00,00,
262239052,00000095,false,Rx,0,8,80,00,07,F4,00,00,00,35,
262239061,000001A4,false,Rx,0,8,00,00,00,08,00,00,00,01,
262240132,000001AA,false,Rx,0,8,7F,FF,00,00,00,00,67,02,
262240137,000001B0,false,Rx,0,7,00,0F,00,00,00,01,48,00,
262240141,000001D0,false,Rx,0,8,00,00,00,00,00,00,00,0A,
262241221,00000166,false,Rx,0,4,D0,32,00,09,00,00,00,00,
262242297,00000158,false,Rx,0,8,00,00,00,00,00,00,00,0A,
262243372,00000161,false,Rx,0,8,00,00,05,50,01,08,00,0D,
262243380,00000039,false,Rx,0,2,00,0C,00,00,00,00,00,00,
262243384,00000191,false,Rx,0,7,01,00,10,A1,41,00,38,00,
262243389,00000164,false,Rx,0,8,00,00,C0,1A,A8,00,00,31,
262243393,00000133,false,Rx,0,5,00,00,00,00,98,00,00,00,
262244462,00000136,false,Rx,0,8,00,02,00,00,00,00,00,1B,
262244466,0000013A,false,Rx,0,8,00,00,00,00,00,00,00,19,
262244471,0000013F,false,Rx,0,8,00,00,00,05,00,00,00,1F,
262244475,0000017C,false,Rx,0,8,00,00,00,00,10,00,00,12,
262244478,0000018E,false,Rx,0,3,00,00,5C,00,00,00,00,00,
262245552,00000309,false,Rx,0,8,00,00,00,00,00,00,00,A2,
262245560,00000428,false,Rx,0,7,01,04,00,00,52,1C,01,00,
262245567,00000405,false,Rx,0,8,00,00,04,00,00,00,00,0B,
262245572,00000183,false,Rx,0,8,00,00,00,07,00,00,10,13,
262246657,00000143,false,Rx,0,4,6B,6B,00,D1,00,00,00,00,
262248797,00000095,false,Rx,0,8,80,00,07,F4,00,00,00,08,
262252057,00000166,false,Rx,0,4,D0,32,00,18,00,00,00,00,
262253166,00000158,false,Rx,0,8,00,00,00,00,00,00,00,19,
262253188,00000161,false,Rx,0,8,00,00,05,50,01,08,00,1C,
262253209,00000191,false,Rx,0,7,01,00,10,A1,41,00,0B,00,
262253220,00000164,false,Rx,0,8,00,00,C0,1A,A8,00,00,04,
262253226,00000133,false,Rx,0,5,00,00,00,00,A7,00,00,00,
262254331,00000136,false,Rx,0,8,00,02,00,00,00,00,00,2A,
262254347,0000013A,false,Rx,0,8,00,00,00,00,00,00,00,28,
262254356,0000013F,false,Rx,0,8,00,00,00,05,00,00,00,2E,
262254363,0000017C,false,Rx,0,8,00,00,00,00,10,00,00,21,
262254369,0000018E,false,Rx,0,3,00,00,6B,00,00,00,00,00,
262255474,000001CF,false,Rx,0,6,80,05,00,00,00,3C,00,00,
262255490,000001DC,false,Rx,0,4,02,00,00,39,00,00,00,00,
262255499,00000183,false,Rx,0,8,00,00,00,05,00,00,10,24,
262256578,00000039,false,Rx,0,2,00,1B,00,00,00,00,00,00,
262256588,00000143,false,Rx,0,4,6B,6B,00,E0,00,00,00,00,
262258742,00000095,false,Rx,0,8,80,00,07,F4,00,00,00,17,
262259819,000001A4,false,Rx,0,8,00,00,00,08,00,00,00,10,
262259828,000001AA,false,Rx,0,8,7F,FF,00,00,00,00,68,10,
262259835,000001B0,false,Rx,0,7,00,0F,00,00,00,01,57,00,
262259841,000001D0,false,Rx,0,8,00,00,00,00,00,00,00,0A,
262261986,00000166,false,Rx,0,4,D0,32,00,27,00,00,00,00,
262263065,00000158,false,Rx,0,8,00,00,00,00,00,00,00,28,
262263073,00000161,false,Rx,0,8,00,00,05,50,01,08,00,2B,
262263080,00000191,false,Rx,0,7,01,00,10,A1,41,00,1A,00,
262264153,00000164,false,Rx,0,8,00,00,C0,1A,A8,00,00,13,
262264159,00000133,false,Rx,0,5,00,00,00,00,B6,00,00,00,
262264164,00000136,false,Rx,0,8,00,02,00,00,00,00,00,39,
262264168,0000013A,false,Rx,0,8,00,00,00,00,00,00,00,37,
262264173,0000013F,false,Rx,0,8,00,00,00,05,00,00,00,3D,
262265214,0000017C,false,Rx,0,8,00,00,00,00,10,00,00,30,
262265219,0000018E,false,Rx,0,3,00,00,7A,00,00,00,00,00,
262265224,00000294,false,Rx,0,8,04,0B,00,02,CF,5A,00,2C,
262265228,0000021E,false,Rx,0,7,03,E8,37,45,22,06,2F,00,
262266301,00000183,false,Rx,0,8,00,00,00,0B,00,00,10,3D,
262267373,00000143,false,Rx,0,4,6B,6B,00,FF,00,00,00,00,
262268452,00000095,false,Rx,0,8,80,00,07,F4,00,00,00,26,
262270599,00000039,false,Rx,0,2,00,2A,00,00,00,00,00,00,
262271674,00000166,false,Rx,0,4,D0,32,00,36,00,00,00,00,
262272752,00000158,false,Rx,0,8,00,00,00,00,00,00,00,37,
262272761,00000161,false,Rx,0,8,00,00,05,50,01,08,00,3A,
262272768,00000191,false,Rx,0,7,01,00,10,A1,41,00,29,00,
262273841,00000164,false,Rx,0,8,00,00,C0,1A,A8,00,00,22,
262273849,00000133,false,Rx,0,5,00,00,00,00,89,00,00,00,
262273856,00000136,false,Rx,0,8,00,02,00,00,00,00,00,0C,
262273861,0000013A,false,Rx,0,8,00,00,00,00,00,00,00,0A,
262274938,0000013F,false,Rx,0,8,00,00,00,05,00,00,00,00,
262274946,0000017C,false,Rx,0,8,00,00,00,00,10,00,00,03,
262274953,0000018E,false,Rx,0,3,00,00,4D,00,00,00,00,00,
262274958,000001CF,false,Rx,0,6,80,05,00,00,00,0F,00,00,
262274964,000001DC,false,Rx,0,4,02,00,00,0C,00,00,00,00,
262276037,00000183,false,Rx,0,8,00,00,00,08,00,00,10,03,
262277117,00000143,false,Rx,0,4,6B,6B,00,C2,00,00,00,00,
262279220,00000095,false,Rx,0,8,80,00,07,F4,00,00,00,35,
262279228,000001A4,false,Rx,0,8,00,00,00,08,00,00,00,2F,
262280300,000001AA,false,Rx,0,8,7F,FF,00,00,00,00,68,2F,
262280306,000001B0,false,Rx,0,7,00,0F,00,00,00,01,66,00,
262280310,000001D0,false,Rx,0,8,00,00,00,00,00,00,00,0A,
262281383,00000166,false,Rx,0,4,D0,32,00,09,00,00,00,00,
262282456,00000158,false,Rx,0,8,00,00,00,00,00,00,00,0A,
262283527,00000161,false,Rx,0,8,00,00,05,50,01,08,00,0D,
262283533,00000191,false,Rx,0,7,01,00,10,A1,41,00,38,00,
262283537,00000164,false,Rx,0,8,00,00,C0,1A,A8,00,00,31,
262283543,00000133,false,Rx,0,5,00,00,00,00,98,00,00,00,
262283548,00000136,false,Rx,0,8,00,02,00,00,00,00,00,1B,
262284624,00000039,false,Rx,0,2,00,39,00,00,00,00,00,00,
262284633,0000013A,false,Rx,0,8,00,00,00,00,00,00,00,19,
262284639,0000013F,false,Rx,0,8,00,00,00,05,00,00,00,1F,
262284643,0000017C,false,Rx,0,8,00,00,00,00,10,00,00,12,
262284650,0000018E,false,Rx,0,3,00,00,5C,00,00,00,00,00,
262285722,00000183,false,Rx,0,8,00,00,00,0D,00,00,10,1D,
262286796,00000143,false,Rx,0,4,6B,6B,00,D1,00,00,00,00,
262288944,00000095,false,Rx,0,8,80,00,07,F4,00,00,00,08,
262291091,00000166,false,Rx,0,4,D0,32,00,18,00,00,00,00,
262293216,00000158,false,Rx,0,8,00,00,00,00,00,00,00,19,
262293223,00000161,false,Rx,0,8,00,00,05,50,01,08,00,1C,
262293228,00000191,false,Rx,0,7,01,00,10,A1,41,00,0B,00,
262293233,00000164,false,Rx,0,8,00,00,C0,1A,A8,00,00,04,
262294306,00000133,false,Rx,0,5,00,00,00,00,A7,00,00,00,
262294315,00000136,false,Rx,0,8,00,02,00,00,00,00,00,2A,
262294321,0000013A,false,Rx,0,8,00,00,00,00,00,00,00,28,
262294326,0000013F,false,Rx,0,8,00,00,00,05,00,00,00,2E,
262294332,0000017C,false,Rx,0,8,00,00,00,00,10,00,00,21,
262295409,0000018E,false,Rx,0,3,00,00,6B,00,00,00,00,00,
262295417,000001CF,false,Rx,0,6,80,05,00,00,00,1E,00,00,
262295423,000001DC,false,Rx,0,4,02,00,00,1B,00,00,00,00,
262295429,00000183,false,Rx,0,8,00,00,00,09,00,00,10,20,
262297565,00000143,false,Rx,0,4,6B,6B,00,E0,00,00,00,00,
262297573,00000333,false,Rx,0,7,00,00,00,00,00,00,2D,00,
262297577,00000039,false,Rx,0,2,00,0C,00,00,00,00,00,00,
262298649,00000095,false,Rx,0,8,80,00,07,F4,00,00,00,17,
262299723,000001A4,false,Rx,0,8,00,00,00,08,00,00,00,3E,
262299730,000001AA,false,Rx,0,8,7F,FF,00,00,00,00,67,3F,
262299737,000001B0,false,Rx,0,7,00,0F,00,00,00,01,75,00,
262300809,000001D0,false,Rx,0,8,00,00,00,00,00,00,00,0A,
262301885,00000166,false,Rx,0,4,D0,32,00,27,00,00,00,00,
262302960,00000158,false,Rx,0,8,00,00,00,00,00,00,00,28,
262302971,00000161,false,Rx,0,8,00,00,05,50,01,08,00,2B,
262302978,00000191,false,Rx,0,7,01,00,10,A1,41,00,1A,00,
262302984,0000018E,false,Rx,0,3,00,00,7A,00,00,00,00,00,
262304055,00000133,false,Rx,0,5,00,00,00,00,B6,00,00,00,
262304060,00000136,false,Rx,0,8,00,02,00,00,00,00,00,39,
262304064,0000013A,false,Rx,0,8,00,00,00,00,00,00,00,37,
262304068,0000013F,false,Rx,0,8,00,00,00,05,00,00,00,3D,
262305146,00000164,false,Rx,0,8,00,00,C0,1A,A8,00,00,13,
262305155,0000017C,false,Rx,0,8,00,00,00,00,10,00,00,30,
262305162,00000294,false,Rx,0,8,04,0B,00,02,CF,5A,00,3B,
262305169,00000305,false,Rx,0,2,80,35,00,00,00,00,00,00,
262305174,0000021E,false,Rx,0,7,03,E8,37,45,22,06,3E,00,
262306214,00000183,false,Rx,0,8,00,00,00,06,00,00,10,32,
262307288,00000143,false,Rx,0,4,6B,6B,00,FF,00,00,00,00,
262308363,00000095,false,Rx,0,8,80,00,07,F4,00,00,00,26,
262311578,00000166,false,Rx,0,4,D0,32,00,36,00,00,00,00,
262311586,00000039,false,Rx,0,2,00,1B,00,00,00,00,00,00,
262312657,00000158,false,Rx,0,8,00,00,00,00,00,00,00,37,
262312664,00000161,false,Rx,0,8,00,00,05,50,01,08,00,3A,
262313739,00000191,false,Rx,0,7,01,00,10,A1,41,00,29,00,
262313745,00000164,false,Rx,0,8,00,00,C0,1A,A8,00,00,22,
262313750,00000133,false,Rx,0,5,00,00,00,00,89,00,00,00,
262313755,00000136,false,Rx,0,8,00,02,00,00,00,00,00,0C,
262313761,0000013A,false,Rx,0,8,00,00,00,00,00,00,00,0A,
262314833,0000013F,false,Rx,0,8,00,00,00,05,00,00,00,00,
262314842,0000017C,false,Rx,0,8,00,00,00,00,10,00,00,03,
262314848,0000018E,false,Rx,0,3,00,00,4D,00,00,00,00,00,
262314855,000001CF,false,Rx,0,6,80,05,00,00,00,2D,00,00,
262314861,000001DC,false,Rx,0,4,02,00,00,2A,00,00,00,00,
262315939,00000320,false,Rx,0,3,00,00,21,00,00,00,00,00,
262315947,00000183,false,Rx,0,8,00,00,00,0C,00,00,10,0F,
262315953,00000324,false,Rx,0,8,74,65,00,00,00,00,0E,29,
262315959,0000037C,false,Rx,0,8,FD,00,FD,00,09,7F,00,29,
262317033,00000143,false,Rx,0,4,6B,6B,00,C2,00,00,00,00,
262319177,00000095,false,Rx,0,8,80,00,07,F4,00,00,00,35,
262319186,000001A4,false,Rx,0,8,00,00,00,08,00,00,00,01,
262320220,000001AA,false,Rx,0,8,7F,FF,00,00,00,00,67,02,
262320229,000001B0,false,Rx,0,7,00,0F,00,00,00,01,48,00,
262320236,000001D0,false,Rx,0,8,00,00,00,00,00,00,00,0A,
262321308,00000166,false,Rx,0,4,D0,32,00,09,00,00,00,00,
262322384,00000158,false,Rx,0,8,00,00,00,00,00,00,00,0A,
262323459,00000161,false,Rx,0,8,00,00,05,50,01,08,00,0D,
262323468,00000191,false,Rx,0,7,01,00,10,A1,41,00,38,00,
262323474,0000018E,false,Rx,0,3,00,00,5C,00,00,00,00,00,
262323480,00000133,false,Rx,0,5,00,00,00,00,98,00,00,00,
262323486,00000136,false,Rx,0,8,00,02,00,00,00,00,00,1B,
262324560,0000013A,false,Rx,0,8,00,00,00,00,00,00,00,19,
262324568,0000013F,false,Rx,0,8,00,00,00,05,00,00,00,1F,
262324574,00000164,false,Rx,0,8,00,00,C0,1A,A8,00,00,31,
262324580,0000017C,false,Rx,0,8,00,00,00,00,10,00,00,12,
262326716,00000183,false,Rx,0,8,00,00,00,09,00,00,10,11,
262326723,00000143,false,Rx,0,4,6B,6B,00,D1,00,00,00,00,
262328858,00000095,false,Rx,0,8,80,00,07,F4,00,00,00,08,
262332094,00000166,false,Rx,0,4,D0,32,00,18,00,00,00,00,
262333171,00000158,false,Rx,0,8,00,00,00,00,00,00,00,19,
262333179,00000161,false,Rx,0,8,00,00,05,50,01,08,00,1C,
262333185,00000039,false,Rx,0,2,00,2A,00,00,00,00,00,00,
262333192,00000164,false,Rx,0,8,00,00,C0,1A,A8,00,00,04,
262333210,00000191,false,Rx,0,7,01,00,10,A1,41,00,0B,00,
262334285,00000133,false,Rx,0,5,00,00,00,00,A7,00,00,00,
262334293,00000136,false,Rx,0,8,00,02,00,00,00,00,00,2A,
262334299,0000013A,false,Rx,0,8,00,00,00,00,00,00,00,28,
262334306,0000013F,false,Rx,0,8,00,00,00,05,00,00,00,2E,
262334311,0000017C,false,Rx,0,8,00,00,00,00,10,00,00,21,
262335386,0000018E,false,Rx,0,3,00,00,6B,00,00,00,00,00,
262335394,000001CF,false,Rx,0,6,80,05,00,00,00,3C,00,00,
262335400,000001DC,false,Rx,0,4,02,00,00,39,00,00,00,00,
262335407,00000183,false,Rx,0,8,00,00,00,0E,00,00,10,2B,
262337547,00000143,false,Rx,0,4,6B,6B,00,E0,00,00,00,00,
262338625,00000095,false,Rx,0,8,80,00,07,F4,00,00,00,17,
262339695,000001A4,false,Rx,0,8,00,00,00,08,00,00,00,10,
262339699,000001AA,false,Rx,0,8,7F,FF,00,00,00,00,68,10,
262339705,000001B0,false,Rx,0,7,00,0F,00,00,00,01,57,00,
262340780,000001D0,false,Rx,0,8,00,00,00,00,00,00,00,0A,
262341855,00000166,false,Rx,0,4,D0,32,00,27,00,00,00,00,
262342935,00000158,false,Rx,0,8,00,00,00,00,00,00,00,28,
262342943,00000161,false,Rx,0,8,00,00,05,50,01,08,00,2B,
262342950,00000191,false,Rx,0,7,01,00,10,A1,41,00,1A,00,
262344024,00000164,false,Rx,0,8,00,00,C0,1A,A8,00,00,13,
262344032,00000133,false,Rx,0,5,00,00,00,00,B6,00,00,00,
262344038,00000136,false,Rx,0,8,00,02,00,00,00,00,00,39,
262344044,0000013A,false,Rx,0,8,00,00,00,00,00,00,00,37,
262344049,0000013F,false,Rx,0,8,00,00,00,05,00,00,00,3D,
262345123,0000017C,false,Rx,0,8,00,00,00,00,10,00,00,30,
262345130,0000018E,false,Rx,0,3,00,00,7A,00,00,00,00,00,
262345135,00000294,false,Rx,0,8,04,0B,00,02,CF,5A,00,0E,
262345139,0000021E,false,Rx,0,7,03,E8,37,45,22,06,01,00,
262346213,00000309,false,Rx,0,8,00,00,00,00,00,00,00,B1,
262346219,00000183,false,Rx,0,8,00,00,00,0A,00,00,10,3E,
262346223,00000039,false,Rx,0,2,00,39,00,00,00,00,00,00,
262347294,00000143,false,Rx,0,4,6B,6B,00,FF,00,00,00,00,
262348368,00000095,false,Rx,0,8,80,00,07,F4,00,00,00,26,
262351575,00000166,false,Rx,0,4,D0,32,00,36,00,00,00,00,
262352647,00000158,false,Rx,0,8,00,00,00,00,00,00,00,37,
262352655,00000161,false,Rx,0,8,00,00,05,50,01,08,00,3A,
262353730,00000191,false,Rx,0,7,01,00,10,A1,41,00,29,00,
262353738,00000164,false,Rx,0,8,00,00,C0,1A,A8,00,00,22,
262353745,00000133,false,Rx,0,5,00,00,00,00,89,00,00,00,
262353750,00000136,false,Rx,0,8,00,02,00,00,00,00,00,0C,
262353756,0000013A,false,Rx,0,8,00,00,00,00,00,00,00,0A,
262354829,0000013F,false,Rx,0,8,00,00,00,05,00,00,00,00,
262354836,0000017C,false,Rx,0,8,00,00,00,00,10,00,00,03,
262354843,0000018E,false,Rx,0,3,00,00,4D,00,00,00,00,00,
262354848,000001CF,false,Rx,0,6,80,05,00,00,00,0F,00,00,
262354854,000001DC,false,Rx,0,4,02,00,00,0C,00,00,00,00,
262355925,00000183,false,Rx,0,8,00,00,00,07,00,00,10,04,
262356998,00000143,false,Rx,0,4,6B,6B,00,C2,00,00,00,00,
262359143,00000095,false,Rx,0,8,80,00,07,F4,00,00,00,35,
262359152,000001A4,false,Rx,0,8,00,00,00,08,00,00,00,2F,
262360224,000001AA,false,Rx,0,8,7F,FF,00,00,00,00,68,2F,
262360231,000001B0,false,Rx,0,7,00,0F,00,00,00,01,66,00,
262360237,00000039,false,Rx,0,2,00,0C,00,00,00,00,00,00,
262360244,000001D0,false,Rx,0,8,00,00,00,00,00,00,00,0A,
262361315,00000166,false,Rx,0,4,D0,32,00,09,00,00,00,00,
262362386,00000158,false,Rx,0,8,00,00,00,00,00,00,00,0A,
262363459,00000161,false,Rx,0,8,00,00,05,50,01,08,00,0D,
262363467,00000191,false,Rx,0,7,01,00,10,A1,41,00,38,00,
262363473,0000018E,false,Rx,0,3,00,00,5C,00,00,00,00,00,
262363479,00000133,false,Rx,0,5,00,00,00,00,98,00,00,00,
262364553,00000136,false,Rx,0,8,00,02,00,00,00,00,00,1B,
262364561,0000013A,false,Rx,0,8,00,00,00,00,00,00,00,19,
262364567,0000013F,false,Rx,0,8,00,00,00,05,00,00,00,1F,
262364574,00000164,false,Rx,0,8,00,00,C0,1A,A8,00,00,31,
262364579,0000017C,false,Rx,0,8,00,00,00,00,10,00,00,12,
262365652,00000183,false,Rx,0,8,00,00,00,0D,00,00,10,1D,
262366724,00000143,false,Rx,0,4,6B,6B,00,D1,00,00,00,00,
262368864,00000095,false,Rx,0,8,80,00,07,F4,00,00,00,08,
262371007,00000166,false,Rx,0,4,D0,32,00,18,00,00,00,00,
262373150,00000158,false,Rx,0,8,00,00,00,00,00,00,00,19,
262373155,00000161,false,Rx,0,8,00,00,05,50,01,08,00,1C,
262373160,00000191,false,Rx,0,7,01,00,10,A1,41,00,0B,00,
262373165,00000164,false,Rx,0,8,00,00,C0,1A,A8,00,00,04,
262373169,00000133,false,Rx,0,5,00,00,00,00,A7,00,00,00,
262374214,00000136,false,Rx,0,8,00,02,00,00,00,00,00,2A,
262374220,0000013A,false,Rx,0,8,00,00,00,00,00,00,00,28,
262374224,0000013F,false,Rx,0,8,00,00,00,05,00,00,00,2E,
262374230,0000017C,false,Rx,0,8,00,00,00,00,10,00,00,21,
262375299,0000018E,false,Rx,0,3,00,00,6B,00,00,00,00,00,
262375305,000001CF,false,Rx,0,6,80,05,00,00,00,1E,00,00,
262375309,000001DC,false,Rx,0,4,02,00,00,1B,00,00,00,00,
262375314,00000183,false,Rx,0,8,00,00,00,09,00,00,10,20,
262376385,00000039,false,Rx,0,2,00,1B,00,00,00,00,00,00,
262377457,00000143,false,Rx,0,4,6B,6B,00,E0,00,00,00,00,
262378527,00000095,false,Rx,0,8,80,00,07,F4,00,00,00,17,
262379601,000001A4,false,Rx,0,8,00,00,00,08,00,00,00,3E,
262379607,000001AA,false,Rx,0,8,7F,FF,00,00,00,00,67,3F,
262379611,000001B0,false,Rx,0,7,00,0F,00,00,00,01,75,00,
262380681,000001D0,false,Rx,0,8,00,00,00,00,00,00,00,0A,
262381755,00000166,false,Rx,0,4,D0,32,00,27,00,00,00,00,
262382826,00000158,false,Rx,0,8,00,00,00,00,00,00,00,28,
262382831,00000161,false,Rx,0,8,00,00,05,50,01,08,00,2B,
262382836,00000191,false,Rx,0,7,01,00,10,A1,41,00,1A,00,
262383913,00000164,false,Rx,0,8,00,00,C0,1A,A8,00,00,13,
262383918,00000133,false,Rx,0,5,00,00,00,00,B6,00,00,00,
262383922,00000136,false,Rx,0,8,00,02,00,00,00,00,00,39,
262383928,0000013A,false,Rx,0,8,00,00,00,00,00,00,00,37,
262384997,0000013F,false,Rx,0,8,00,00,00,05,00,00,00,3D,
262385003,0000017C,false,Rx,0,8,00,00,00,00,10,00,00,30,
262385007,0000018E,false,Rx,0,3,00,00,7A,00,00,00,00,00,
262385013,00000294,false,Rx,0,8,04,0B,00,02,CF,5A,00,1D,
262385017,0000021E,false,Rx,0,7,03,E8,37,45,22,06,10,00,
262386086,00000183,false,Rx,0,8,00,00,00,06,00,00,10,32,
262387154,00000143,false,Rx,0,4,6B,6B,00,FF,00,00,00,00,
262389283,00000095,false,Rx,0,8,80,00,07,F4,00,00,00,26,
262391422,00000166,false,Rx,0,4,D0,32,00,36,00,00,00,00,
262392492,00000158,false,Rx,0,8,00,00,00,00,00,00,00,37,
262393570,00000161,false,Rx,0,8,00,00,05,50,01,08,00,3A,
262393575,00000191,false,Rx,0,7,01,00,10,A1,41,00,29,00,
262393579,00000164,false,Rx,0,8,00,00,C0,1A,A8,00,00,22,
262393585,00000133,false,Rx,0,5,00,00,00,00,89,00,00,00,
262393590,00000136,false,Rx,0,8,00,02,00,00,00,00,00,0C,
262394660,0000013A,false,Rx,0,8,00,00,00,00,00,00,00,0A,
262394665,0000013F,false,Rx,0,8,00,00,00,05,00,00,00,00,
262394670,0000017C,false,Rx,0,8,00,00,00,00,10,00,00,03,
262394675,0000018E,false,Rx,0,3,00,00,4D,00,00,00,00,00,
262394679,000001CF,false,Rx,0,6,80,05,00,00,00,2D,00,00,
262394685,000001DC,false,Rx,0,4,02,00,00,2A,00,00,00,00,
262395761,00000183,false,Rx,0,8,00,00,00,0C,00,00,10,0F,
262395765,00000039,false,Rx,0,2,00,2A,00,00,00,00,00,00,
262396836,00000143,false,Rx,0,4,6B,6B,00,C2,00,00,00,00,
262397910,00000333,false,Rx,0,7,00,00,00,00,00,00,3C,00,
262398980,00000095,false,Rx,0,8,80,00,07,F4,00,00,00,35,
262400049,000001A4,false,Rx,0,8,00,00,00,08,00,00,00,01,
262400054,000001AA,false,Rx,0,8,7F,FF,00,00,00,00,67,02,
262400059,000001B0,false,Rx,0,7,00,0F,00,00,00,01,48,00,
262400064,000001D0,false,Rx,0,8,00,00,00,00,00,00,00,0A,
262401136,00000166,false,Rx,0,4,D0,32,00,09,00,00,00,00,
262403276,00000158,false,Rx,0,8,00,00,00,00,00,00,00,0A,
262403281,00000161,false,Rx,0,8,00,00,05,50,01,08,00,0D,
262403289,00000191,false,Rx,0,7,01,00,10,A1,41,00,38,00,
262403294,0000018E,false,Rx,0,3,00,00,5C,00,00,00,00,00,
262403299,00000133,false,Rx,0,5,00,00,00,00,98,00,00,00,
262404369,00000136,false,Rx,0,8,00,02,00,00,00,00,00,1B,
262404374,0000013A,false,Rx,0,8,00,00,00,00,00,00,00,19,
262404380,0000013F,false,Rx,0,8,00,00,00,05,00,00,00,1F,
262404384,00000164,false,Rx,0,8,00,00,C0,1A,A8,00,00,31,
262404389,0000017C,false,Rx,0,8,00,00,00,00,10,00,00,12,
262406525,00000183,false,Rx,0,8,00,00,00,09,00,00,10,11,
262406532,00000143,false,Rx,0,4,6B,6B,00,D1,00,00,00,00,
262407603,00000305,false,Rx,0,2,80,08,00,00,00,00,00,00,
262408672,00000095,false,Rx,0,8,80,00,07,F4,00,00,00,08,
262411870,00000166,false,Rx,0,4,D0,32,00,18,00,00,00,00,
262412945,00000158,false,Rx,0,8,00,00,00,00,00,00,00,19,
262412950,00000161,false,Rx,0,8,00,00,05,50,01,08,00,1C,
262412955,00000191,false,Rx,0,7,01,00,90,A1,41,00,03,00,
262414028,00000164,false,Rx,0,8,00,00,C0,1A,A8,00,00,04,
262414034,00000133,false,Rx,0,5,00,00,00,00,A7,00,00,00,
262414038,00000136,false,Rx,0,8,00,02,00,00,00,00,00,2A,
262414043,0000013A,false,Rx,0,8,00,00,00,00,00,00,00,28,
262414047,0000013F,false,Rx,0,8,00,00,00,05,00,00,00,2E,
262415120,0000017C,false,Rx,0,8,00,00,00,00,10,00,00,21,
262415126,0000018E,false,Rx,0,3,00,00,6B,00,00,00,00,00,
262415130,000001CF,false,Rx,0,6,80,05,00,00,00,3C,00,00,
262415136,000001DC,false,Rx,0,4,02,00,00,39,00,00,00,00,
262415141,00000320,false,Rx,0,3,00,00,30,00,00,00,00,00,
262415146,00000324,false,Rx,0,8,74,65,00,00,00,00,0E,38,
262416215,00000183,false,Rx,0,8,00,00,00,0E,00,00,10,2B,
262416220,0000037C,false,Rx,0,8,FD,00,FD,00,09,7F,00,38,
262416225,00000039,false,Rx,0,2,00,39,00,00,00,00,00,00,
262417297,00000143,false,Rx,0,4,6B,6B,00,E0,00,00,00,00,
262418368,00000095,false,Rx,0,8,80,00,07,F4,00,00,00,17,
262419440,000001A4,false,Rx,0,8,00,00,00,08,00,00,00,10,
262419445,000001AA,false,Rx,0,8,7F,FF,00,00,00,00,68,10,
262420517,000001B0,false,Rx,0,7,00,0F,00,00,00,01,57,00,
262420522,000001D0,false,Rx,0,8,00,00,00,00,00,00,00,0A,
262421596,00000166,false,Rx,0,4,D0,32,00,27,00,00,00,00,
262422666,00000158,false,Rx,0,8,00,00,00,00,00,00,00,28,
262422672,00000161,false,Rx,0,8,00,00,05,50,01,08,00,2B,
262423742,00000191,false,Rx,0,7,01,00,90,A1,41,00,12,00,
262423748,00000133,false,Rx,0,5,00,00,00,00,B6,00,00,00,
262423753,00000136,false,Rx,0,8,00,02,00,00,00,00,00,39,
262423758,0000013A,false,Rx,0,8,00,00,00,00,00,00,00,37,
262424824,0000013F,false,Rx,0,8,00,00,00,05,00,00,00,3D,
262424830,00000164,false,Rx,0,8,00,00,C0,1A,A8,00,00,13,
262424833,0000017C,false,Rx,0,8,00,00,00,00,10,00,00,30,
262424838,0000018E,false,Rx,0,3,00,00,7A,00,00,00,00,00,
262424841,00000294,false,Rx,0,8,04,0B,00,02,CF,5A,00,2C,
262425916,0000021E,false,Rx,0,7,03,E8,37,45,22,06,2F,00,
262425923,00000183,false,Rx,0,8,00,00,00,0A,00,00,10,3E,
262426993,00000143,false,Rx,0,4,6B,6B,00,FF,00,00,00,00,
262429126,00000095,false,Rx,0,8,80,00,07,F4,00,00,00,26,
262430205,00000039,false,Rx,0,2,00,0C,00,00,00,00,00,00,
262431280,00000166,false,Rx,0,4,D0,32,00,36,00,00,00,00,
262432354,00000158,false,Rx,0,8,00,00,00,00,00,00,00,37,
262433430,00000161,false,Rx,0,8,00,00,05,50,01,08,00,3A,
262433436,00000191,false,Rx,0,7,01,00,90,A1,41,00,21,00,
262433441,00000164,false,Rx,0,8,00,00,C0,1A,A8,00,00,22,
262433445,00000133,false,Rx,0,5,00,00,00,00,89,00,00,00,
262433450,00000136,false,Rx,0,8,00,02,00,00,00,00,00,0C,
262434519,0000013A,false,Rx,0,8,00,00,00,00,00,00,00,0A,
262434526,0000013F,false,Rx,0,8,00,00,00,05,00,00,00,00,
262434532,0000017C,false,Rx,0,8,00,00,00,00,10,00,00,03,
262434537,0000018E,false,Rx,0,3,00,00,4D,00,00,00,00,00,
262434541,000001CF,false,Rx,0,6,80,05,00,00,00,0F,00,00,
262435614,000001DC,false,Rx,0,4,02,00,00,0C,00,00,00,00,
262435619,00000183,false,Rx,0,8,00,00,00,0F,00,00,10,0C,
262436689,00000143,false,Rx,0,4,6B,6B,00,C2,00,00,00,00,
262438828,00000095,false,Rx,0,8,80,00,07,F4,00,00,00,35,
262439903,000001A4,false,Rx,0,8,00,00,00,08,00,00,00,2F,
262439909,000001AA,false,Rx,0,8,7F,FF,00,00,00,00,68,2F,
262439914,000001B0,false,Rx,0,7,00,0F,00,00,00,01,66,00,
262439919,000001D0,false,Rx,0,8,00,00,00,00,00,00,00,0A,
262442060,00000166,false,Rx,0,4,D0,32,00,09,00,00,00,00,
262443133,00000158,false,Rx,0,8,00,00,00,00,00,00,00,0A,
262443140,00000161,false,Rx,0,8,00,00,05,50,01,08,00,0D,
262443146,00000191,false,Rx,0,7,01,00,90,A1,41,00,30,00,
262443149,0000018E,false,Rx,0,3,00,00,5C,00,00,00,00,00,
262444216,00000133,false,Rx,0,5,00,00,00,00,98,00,00,00,
262444222,00000136,false,Rx,0,8,00,02,00,00,00,00,00,1B,
262444227,0000013A,false,Rx,0,8,00,00,00,00,00,00,00,19,
262444233,0000013F,false,Rx,0,8,00,00,00,05,00,00,00,1F,
262444239,00000164,false,Rx,0,8,00,00,C0,1A,A8,00,00,31,
262445312,0000017C,false,Rx,0,8,00,00,00,00,10,00,00,12,
262445320,00000039,false,Rx,0,2,00,1B,00,00,00,00,00,00,
262445327,00000309,false,Rx,0,8,00,00,00,00,00,00,00,84,
262446407,00000183,false,Rx,0,8,00,00,00,0B,00,00,10,1F,
262447481,00000143,false,Rx,0,4,6B,6B,00,D1,00,00,00,00,
262448556,00000095,false,Rx,0,8,80,00,07,F4,00,00,00,08,
262451766,00000166,false,Rx,0,4,D0,32,00,18,00,00,00,00,
262452842,00000158,false,Rx,0,8,00,00,00,00,00,00,00,19,
262452849,00000161,false,Rx,0,8,00,00,05,50,01,08,00,1C,
262452855,00000191,false,Rx,0,7,01,00,90,A1,41,00,03,00,
262453929,00000164,false,Rx,0,8,00,00,C0,1A,A8,00,00,04,
262453938,00000133,false,Rx,0,5,00,00,00,00,A7,00,00,00,
262453949,00000136,false,Rx,0,8,00,02,00,00,00,00,00,2A,
262453955,0000013A,false,Rx,0,8,00,00,00,00,00,00,00,28,
262453960,0000013F,false,Rx,0,8,00,00,00,05,00,00,00,2E,
262455035,0000017C,false,Rx,0,8,00,00,00,00,10,00,00,21,
262455044,0000018E,false,Rx,0,3,00,00,6B,00,00,00,00,00,
262455050,000001CF,false,Rx,0,6,80,05,00,00,00,1E,00,00,
262455055,000001DC,false,Rx,0,4,02,00,00,1B,00,00,00,00,
262456129,00000183,false,Rx,0,8,00,00,00,08,00,00,10,21,
262457212,00000143,false,Rx,0,4,6B,6B,00,E0,00,00,00,00,
262459351,00000095,false,Rx,0,8,80,00,07,F4,00,00,00,17,
262459358,00000039,false,Rx,0,2,00,2A,00,00,00,00,00,00,
262459363,000001A4,false,Rx,0,8,00,00,00,08,00,00,00,3E,
262459368,000001AA,false,Rx,0,8,7F,FF,00,00,00,00,67,3F,
262460445,000001B0,false,Rx,0,7,00,0F,00,00,00,01,75,00,
262460453,000001D0,false,Rx,0,8,00,00,00,00,00,00,00,0A,
262461527,00000166,false,Rx,0,4,D0,32,00,27,00,00,00,00,
262462607,00000158,false,Rx,0,8,00,00,00,00,00,00,00,28,
262462615,00000161,false,Rx,0,8,00,00,05,50,01,08,00,2B,
262463690,00000191,false,Rx,0,7,01,00,90,A1,41,00,12,00,
262463698,00000133,false,Rx,0,5,00,00,00,00,B6,00,00,00,
262463705,00000136,false,Rx,0,8,00,02,00,00,00,00,00,39,
262463710,0000013A,false,Rx,0,8,00,00,00,00,00,00,00,37,
262464786,0000013F,false,Rx,0,8,00,00,00,05,00,00,00,3D,
262464792,00000164,false,Rx,0,8,00,00,C0,1A,A8,00,00,13,
262464796,0000017C,false,Rx,0,8,00,00,00,00,10,00,00,30,
262464801,0000018E,false,Rx,0,3,00,00,7A,00,00,00,00,00,
262464806,00000294,false,Rx,0,8,04,0B,00,02,CF,5A,00,3B,
262465884,0000021E,false,Rx,0,7,03,E8,37,45,22,06,3E,00,
262465893,00000183,false,Rx,0,8,00,00,00,06,00,00,10,32,
262466963,00000143,false,Rx,0,4,6B,6B,00,FF,00,00,00,00,
262469109,00000095,false,Rx,0,8,80,00,07,F4,00,00,00,26,
262471218,00000166,false,Rx,0,4,D0,32,00,36,00,00,00,00,
262472291,00000158,false,Rx,0,8,00,00,00,00,00,00,00,37,
262473365,00000161,false,Rx,0,8,00,00,05,50,01,08,00,3A,
262473372,00000039,false,Rx,0,2,00,39,00,00,00,00,00,00,
262473378,00000191,false,Rx,0,7,01,00,90,A1,41,00,21,00,
262473385,00000164,false,Rx,0,8,00,00,C0,1A,A8,00,00,22,
262473391,00000133,false,Rx,0,5,00,00,00,00,89,00,00,00,
262474482,00000136,false,Rx,0,8,00,02,00,00,00,00,00,0C,
262474494,0000013A,false,Rx,0,8,00,00,00,00,00,00,00,0A,
262474499,0000013F,false,Rx,0,8,00,00,00,05,00,00,00,00,
262474504,0000017C,false,Rx,0,8,00,00,00,00,10,00,00,03,
262474509,0000018E,false,Rx,0,3,00,00,4D,00,00,00,00,00,
262475602,000001CF,false,Rx,0,6,80,05,00,00,00,2D,00,00,
262475611,000001DC,false,Rx,0,4,02,00,00,2A,00,00,00,00,
262475616,00000183,false,Rx,0,8,00,00,00,04,00,00,10,07,
262476692,00000143,false,Rx,0,4,6B,6B,00,C2,00,00,00,00,
262478846,00000095,false,Rx,0,8,80,00,07,F4,00,00,00,35,
262479931,000001A4,false,Rx,0,8,00,00,00,08,00,00,00,01,
262479940,000001AA,false,Rx,0,8,7F,FF,00,00,00,00,67,02,
262479947,000001B0,false,Rx,0,7,00,0F,00,00,00,01,48,00,
262479953,000001D0,false,Rx,0,8,00,00,00,00,00,00,00,0A,
262481028,00000166,false,Rx,0,4,D0,32,00,09,00,00,00,00,
262483174,00000158,false,Rx,0,8,00,00,00,00,00,00,00,0A,
262483181,00000161,false,Rx,0,8,00,00,05,50,01,08,00,0D,
262483187,00000191,false,Rx,0,7,01,00,90,A1,41,00,30,00,
262483193,00000164,false,Rx,0,8,00,00,C0,1A,A8,00,00,31,
262484287,00000133,false,Rx,0,5,00,00,00,00,98,00,00,00,
262484297,00000136,false,Rx,0,8,00,02,00,00,00,00,00,1B,
262484304,0000013A,false,Rx,0,8,00,00,00,00,00,00,00,19,
262484310,0000013F,false,Rx,0,8,00,00,00,05,00,00,00,1F,
262484319,0000017C,false,Rx,0,8,00,00,00,00,10,00,00,12,
262485391,0000018E,false,Rx,0,3,00,00,5C,00,00,00,00,00,
262486462,00000183,false,Rx,0,8,00,00,00,03,00,00,10,17,
262487539,00000143,false,Rx,0,4,6B,6B,00,D1,00,00,00,00,
262488615,00000039,false,Rx,0,2,00,0C,00,00,00,00,00,00,
262488624,00000095,false,Rx,0,8,80,00,07,F4,00,00,00,08,
262491834,00000166,false,Rx,0,4,D0,32,00,18,00,00,00,00,
262492910,00000158,false,Rx,0,8,00,00,00,00,00,00,00,19,
262492916,00000161,false,Rx,0,8,00,00,05,50,01,08,00,1C,
262492922,00000191,false,Rx,0,7,01,00,90,A1,41,00,03,00,
262493995,00000164,false,Rx,0,8,00,00,C0,1A,A8,00,00,04,
262494002,00000133,false,Rx,0,5,00,00,00,00,A7,00,00,00,
262494009,00000136,false,Rx,0,8,00,02,00,00,00,00,00,2A,
262494015,0000013A,false,Rx,0,8,00,00,00,00,00,00,00,28,
262495090,0000013F,false,Rx,0,8,00,00,00,05,00,00,00,2E,
262495098,0000017C,false,Rx,0,8,00,00,00,00,10,00,00,21,
262495105,0000018E,false,Rx,0,3,00,00,6B,00,00,00,00,00,
262495111,000001CF,false,Rx,0,6,80,05,00,00,00,3C,00,00,
262495117,000001DC,false,Rx,0,4,02,00,00,39,00,00,00,00,
262496192,00000183,false,Rx,0,8,00,00,00,0A,00,00,10,2F,
262497281,00000143,false,Rx,0,4,6B,6B,00,E0,00,00,00,00,
262497289,00000333,false,Rx,0,7,00,00,00,00,00,00,0F,00,
262498363,00000095,false,Rx,0,8,80,00,07,F4,00,00,00,17,
262499445,000001A4,false,Rx,0,8,00,00,00,08,00,00,00,10,
262499454,000001AA,false,Rx,0,8,7F,FF,00,00,00,00,68,10,
262500528,000001B0,false,Rx,0,7,00,0F,00,00,00,01,57,00,
262500537,000001D0,false,Rx,0,8,00,00,00,00,00,00,00,0A,
262501615,00000166,false,Rx,0,4,D0,32,00,27,00,00,00,00,
262502690,00000158,false,Rx,0,8,00,00,00,00,00,00,00,28,
262502699,00000161,false,Rx,0,8,00,00,05,50,01,08,00,2B,
262503777,00000191,false,Rx,0,7,01,00,90,A1,41,00,12,00,
262503786,00000133,false,Rx,0,5,00,00,00,00,B6,00,00,00,
262503793,00000136,false,Rx,0,8,00,02,00,00,00,00,00,39,
262503799,0000013A,false,Rx,0,8,00,00,00,00,00,00,00,37,
262504881,0000013F,false,Rx,0,8,00,00,00,05,00,00,00,3D,
262504890,00000164,false,Rx,0,8,00,00,C0,1A,A8,00,00,13,
262504896,0000017C,false,Rx,0,8,00,00,00,00,10,00,00,30,
262504903,0000018E,false,Rx,0,3,00,00,7A,00,00,00,00,00,
262504909,00000294,false,Rx,0,8,04,0B,00,02,CF,5A,00,0E,
262505980,0000021E,false,Rx,0,7,03,E8,37,45,22,06,01,00,
262505989,00000039,false,Rx,0,2,00,1B,00,00,00,00,00,00,
262505995,00000183,false,Rx,0,8,00,00,00,07,00,00,10,31,
262507070,00000143,false,Rx,0,4,6B,6B,00,FF,00,00,00,00,
262509216,00000095,false,Rx,0,8,80,00,07,F4,00,00,00,26,
262511365,00000166,false,Rx,0,4,D0,32,00,36,00,00,00,00,
262512456,00000305,false,Rx,0,2,80,17,00,00,00,00,00,00,
262512469,00000158,false,Rx,0,8,00,00,00,00,00,00,00,37,
262513546,00000161,false,Rx,0,8,00,00,05,50,01,08,00,3A,
262513556,00000191,false,Rx,0,7,01,00,90,A1,41,00,21,00,
262513564,00000164,false,Rx,0,8,00,00,C0,1A,A8,00,00,22,
262513572,00000133,false,Rx,0,5,00,00,00,00,89,00,00,00,
262513578,00000136,false,Rx,0,8,00,02,00,00,00,00,00,0C,
262514658,0000013A,false,Rx,0,8,00,00,00,00,00,00,00,0A,
262514668,0000013F,false,Rx,0,8,00,00,00,05,00,00,00,00,
262514677,0000017C,false,Rx,0,8,00,00,00,00,10,00,00,03,
262514684,0000018E,false,Rx,0,3,00,00,4D,00,00,00,00,00,
262514690,000001CF,false,Rx,0,6,80,05,00,00,00,0F,00,00,
262515773,000001DC,false,Rx,0,4,02,00,00,0C,00,00,00,00,
262515784,00000320,false,Rx,0,3,00,00,03,00,00,00,00,00,
262515792,00000324,false,Rx,0,8,74,65,00,00,00,00,0E,0B,
262515799,00000183,false,Rx,0,8,00,00,00,0D,00,00,10,0E,
262515806,0000037C,false,Rx,0,8,FD,00,FD,00,09,7F,00,0B,
262516882,0000040C,false,Rx,0,8,03,31,33,38,34,39,00,0D,
262516889,00000454,false,Rx,0,3,23,EF,09,00,00,00,00,00,
262516896,00000143,false,Rx,0,4,6B,6B,00,C2,00,00,00,00,
262519038,00000095,false,Rx,0,8,80,00,07,F4,00,00,00,35,
262519048,000001A4,false,Rx,0,8,00,00,00,08,00,00,00,2F,
262520125,000001AA,false,Rx,0,8,7F,FF,00,00,00,00,68,2F,
262520136,000001B0,false,Rx,0,7,00,0F,00,00,00,01,66,00,
262520144,00000039,false,Rx,0,2,00,2A,00,00,00,00,00,00,
262520152,000001D0,false,Rx,0,8,00,00,00,00,00,00,00,0A,
262521220,00000166,false,Rx,0,4,D0,32,00,09,00,00,00,00,
262522299,00000158,false,Rx,0,8,00,00,00,00,00,00,00,0A,
262523377,00000161,false,Rx,0,8,00,00,05,50,01,08,00,0D,
262523386,00000191,false,Rx,0,7,01,00,90,A1,41,00,30,00,
262523392,0000018E,false,Rx,0,3,00,00,5C,00,00,00,00,00,
262523397,00000133,false,Rx,0,5,00,00,00,00,98,00,00,00,
262523402,00000136,false,Rx,0,8,00,02,00,00,00,00,00,1B,
262524472,0000013A,false,Rx,0,8,00,00,00,00,00,00,00,19,
262524478,0000013F,false,Rx,0,8,00,00,00,05,00,00,00,1F,
262524483,00000164,false,Rx,0,8,00,00,C0,1A,A8,00,00,31,
262524488,0000017C,false,Rx,0,8,00,00,00,00,10,00,00,12,
262526624,00000183,false,Rx,0,8,00,00,00,09,00,00,10,11,
262526630,00000143,false,Rx,0,4,6B,6B,00,D1,00,00,00,00,
262528770,00000095,false,Rx,0,8,80,00,07,F4,00,00,00,08,
262531991,00000166,false,Rx,0,4,D0,32,00,18,00,00,00,00,
262533075,00000158,false,Rx,0,8,00,00,00,00,00,00,00,19,
262533085,00000161,false,Rx,0,8,00,00,05,50,01,08,00,1C,
262533093,00000191,false,Rx,0,7,01,00,90,A1,41,00,03,00,
262533101,00000164,false,Rx,0,8,00,00,C0,1A,A8,00,00,04,
262534182,00000133,false,Rx,0,5,00,00,00,00,A7,00,00,00,
262534192,00000039,false,Rx,0,2,00,39,00,00,00,00,00,00,
262534217,00000136,false,Rx,0,8,00,02,00,00,00,00,00,2A,
262534225,0000013A,false,Rx,0,8,00,00,00,00,00,00,00,28,
262534238,0000013F,false,Rx,0,8,00,00,00,05,00,00,00,2E,
262535315,0000017C,false,Rx,0,8,00,00,00,00,10,00,00,21,
262535323,0000018E,false,Rx,0,3,00,00,6B,00,00,00,00,00,
262535329,000001CF,false,Rx,0,6,80,05,00,00,00,1E,00,00,
262535335,000001DC,false,Rx,0,4,02,00,00,1B,00,00,00,00,
262535342,00000183,false,Rx,0,8,00,00,00,06,00,00,10,23,
262537516,00000143,false,Rx,0,4,6B,6B,00,E0,00,00,00,00,
262538598,00000095,false,Rx,0,8,80,00,07,F4,00,00,00,17,
262539671,000001A4,false,Rx,0,8,00,00,00,08,00,00,00,3E,
262539678,000001AA,false,Rx,0,8,7F,FF,00,00,00,00,67,3F,
262539682,000001B0,false,Rx,0,7,00,0F,00,00,00,01,75,00,
262540756,000001D0,false,Rx,0,8,00,00,00,00,00,00,00,0A,
262541828,00000166,false,Rx,0,4,D0,32,00,27,00,00,00,00,
262542904,00000158,false,Rx,0,8,00,00,00,00,00,00,00,28,
262542914,00000161,false,Rx,0,8,00,00,05,50,01,08,00,2B,
262542922,00000191,false,Rx,0,7,01,00,90,A1,41,00,12,00,
262543998,00000164,false,Rx,0,8,00,00,C0,1A,A8,00,00,13,
262544002,00000133,false,Rx,0,5,00,00,00,00,B6,00,00,00,
262544007,00000136,false,Rx,0,8,00,02,00,00,00,00,00,39,
262544011,0000013A,false,Rx,0,8,00,00,00,00,00,00,00,37,
262544014,0000013F,false,Rx,0,8,00,00,00,05,00,00,00,3D,
262545087,0000017C,false,Rx,0,8,00,00,00,00,10,00,00,30,
262545092,0000018E,false,Rx,0,3,00,00,7A,00,00,00,00,00,
262545096,00000294,false,Rx,0,8,04,0B,00,02,CF,5A,00,1D,
262545100,0000021E,false,Rx,0,7,03,E8,37,45,22,06,10,00,
262546172,00000309,false,Rx,0,8,00,00,00,00,00,00,00,93,
262546181,00000428,false,Rx,0,7,01,04,00,00,52,1C,10,00,
262546187,00000405,false,Rx,0,8,00,00,04,00,00,00,00,1A,
262546193,00000183,false,Rx,0,8,00,00,00,0C,00,00,10,3C,
262547278,00000143,false,Rx,0,4,6B,6B,00,FF,00,00,00,00,
262548356,00000095,false,Rx,0,8,80,00,07,F4,00,00,00,26,
262550500,00000039,false,Rx,0,2,00,0C,00,00,00,00,00,00,
262551584,00000166,false,Rx,0,4,D0,32,00,36,00,00,00,00,
262552659,00000158,false,Rx,0,8,00,00,00,00,00,00,00,37,
262552668,00000161,false,Rx,0,8,00,00,05,50,01,08,00,3A,
262553743,00000191,false,Rx,0,7,01,00,90,A1,41,00,21,00,
262553749,00000164,false,Rx,0,8,00,00,C0,1A,A8,00,00,22,
262553755,00000133,false,Rx,0,5,00,00,00,00,89,00,00,00,
262553759,00000136,false,Rx,0,8,00,02,00,00,00,00,00,0C,
262553765,0000013A,false,Rx,0,8,00,00,00,00,00,00,00,0A,
262554842,0000013F,false,Rx,0,8,00,00,00,05,00,00,00,00,
262554853,0000017C,false,Rx,0,8,00,00,00,00,10,00,00,03,
262554859,0000018E,false,Rx,0,3,00,00,4D,00,00,00,00,00,
262554866,000001CF,false,Rx,0,6,80,05,00,00,00,2D,00,00,
262554875,000001DC,false,Rx,0,4,02,00,00,2A,00,00,00,00,
262555951,00000183,false,Rx,0,8,00,00,00,09,00,00,10,02,
262557022,00000143,false,Rx,0,4,6B,6B,00,C2,00,00,00,00,
262559165,00000095,false,Rx,0,8,80,00,07,F4,00,00,00,35,
262559172,000001A4,false,Rx,0,8,00,00,00,08,00,00,00,01,
262560221,000001AA,false,Rx,0,8,7F,FF,00,00,00,00,67,02,
262560234,000001B0,false,Rx,0,7,00,0F,00,00,00,01,48,00,
262560241,000001D0,false,Rx,0,8,00,00,00,00,00,00,00,0A,
262561319,00000166,false,Rx,0,4,D0,32,00,09,00,00,00,00,
262562401,00000158,false,Rx,0,8,00,00,00,00,00,00,00,0A,
262563477,00000161,false,Rx,0,8,00,00,05,50,01,08,00,0D,
262563488,00000039,false,Rx,0,2,00,1B,00,00,00,00,00,00,
262563497,00000191,false,Rx,0,7,01,00,90,A1,41,00,30,00,
262563504,00000164,false,Rx,0,8,00,00,C0,1A,A8,00,00,31,
262563515,00000133,false,Rx,0,5,00,00,00,00,98,00,00,00,
262564596,00000136,false,Rx,0,8,00,02,00,00,00,00,00,1B,
262564605,0000013A,false,Rx,0,8,00,00,00,00,00,00,00,19,
262564613,0000013F,false,Rx,0,8,00,00,00,05,00,00,00,1F,
262564620,0000017C,false,Rx,0,8,00,00,00,00,10,00,00,12,
262564631,0000018E,false,Rx,0,3,00,00,5C,00,00,00,00,00,
262565707,00000183,false,Rx,0,8,00,00,00,06,00,00,10,14,
262566789,00000143,false,Rx,0,4,6B,6B,00,D1,00,00,00,00,
262568932,00000095,false,Rx,0,8,80,00,07,F4,00,00,00,08,
262571081,00000166,false,Rx,0,4,D0,32,00,18,00,00,00,00,
262573246,00000158,false,Rx,0,8,00,00,00,00,00,00,00,19,
262573254,00000161,false,Rx,0,8,00,00,05,50,01,08,00,1C,
262573258,00000191,false,Rx,0,7,01,00,90,A1,41,00,03,00,
262573262,00000164,false,Rx,0,8,00,00,C0,1A,A8,00,00,04,
262573266,00000133,false,Rx,0,5,00,00,00,00,A7,00,00,00,
262574334,00000136,false,Rx,0,8,00,02,00,00,00,00,00,2A,
262574340,0000013A,false,Rx,0,8,00,00,00,00,00,00,00,28,
262574345,0000013F,false,Rx,0,8,00,00,00,05,00,00,00,2E,
262574349,0000017C,false,Rx,0,8,00,00,00,00,10,00,00,21,
262574354,0000018E,false,Rx,0,3,00,00,6B,00,00,00,00,00,
262575431,000001CF,false,Rx,0,6,80,05,00,00,00,3C,00,00,
262575438,000001DC,false,Rx,0,4,02,00,00,39,00,00,00,00,
262575444,00000183,false,Rx,0,8,00,00,00,04,00,00,10,25,
262576519,00000143,false,Rx,0,4,6B,6B,00,E0,00,00,00,00,
262577599,00000039,false,Rx,0,2,00,2A,00,00,00,00,00,00,
262578675,00000095,false,Rx,0,8,80,00,07,F4,00,00,00,17,
262579759,000001A4,false,Rx,0,8,00,00,00,08,00,00,00,10,
262579767,000001AA,false,Rx,0,8,7F,FF,00,00,00,00,68,10,
262579774,000001B0,false,Rx,0,7,00,0F,00,00,00,01,57,00,
262579779,000001D0,false,Rx,0,8,00,00,00,00,00,00,00,0A,
262581926,00000166,false,Rx,0,4,D0,32,00,27,00,00,00,00,
262583003,00000158,false,Rx,0,8,00,00,00,00,00,00,00,28,
262583011,00000161,false,Rx,0,8,00,00,05,50,01,08,00,2B,
262583018,00000191,false,Rx,0,7,01,00,90,A1,41,00,12,00,
262584097,00000164,false,Rx,0,8,00,00,C0,1A,A8,00,00,13,
262584106,00000133,false,Rx,0,5,00,00,00,00,B6,00,00,00,
262584113,00000136,false,Rx,0,8,00,02,00,00,00,00,00,39,
262584119,0000013A,false,Rx,0,8,00,00,00,00,00,00,00,37,
262584125,0000013F,false,Rx,0,8,00,00,00,05,00,00,00,3D,
262585212,0000017C,false,Rx,0,8,00,00,00,00,10,00,00,30,
262585221,0000018E,false,Rx,0,3,00,00,7A,00,00,00,00,00,
262585227,00000294,false,Rx,0,8,04,0B,00,02,CF,5A,00,2C,
262585233,0000021E,false,Rx,0,7,03,E8,37,45,22,06,2F,00,
262586311,00000183,false,Rx,0,8,00,00,00,03,00,00,10,35,
262587397,00000143,false,Rx,0,4,6B,6B,00,FF,00,00,00,00,
262588484,00000095,false,Rx,0,8,80,00,07,F4,00,00,00,26,
262591694,00000166,false,Rx,0,4,D0,32,00,36,00,00,00,00,
262591702,00000039,false,Rx,0,2,00,39,00,00,00,00,00,00,
262592778,00000158,false,Rx,0,8,00,00,00,00,00,00,00,37,
262592787,00000161,false,Rx,0,8,00,00,05,50,01,08,00,3A,
262592792,00000191,false,Rx,0,7,01,00,90,A1,41,00,21,00,
262593861,00000164,false,Rx,0,8,00,00,C0,1A,A8,00,00,22,
262593865,00000133,false,Rx,0,5,00,00,00,00,89,00,00,00,
262593870,00000136,false,Rx,0,8,00,02,00,00,00,00,00,0C,
262593874,0000013A,false,Rx,0,8,00,00,00,00,00,00,00,0A,
262594951,0000013F,false,Rx,0,8,00,00,00,05,00,00,00,00,
262594960,0000017C,false,Rx,0,8,00,00,00,00,10,00,00,03,
262594966,0000018E,false,Rx,0,3,00,00,4D,00,00,00,00,00,
262594973,000001CF,false,Rx,0,6,80,05,00,00,00,0F,00,00,
262594978,000001DC,false,Rx,0,4,02,00,00,0C,00,00,00,00,
262596088,00000183,false,Rx,0,8,00,00,00,0A,00,00,10,01,
262597184,00000143,false,Rx,0,4,6B,6B,00,C2,00,00,00,00,
262597194,00000333,false,Rx,0,7,00,00,00,00,00,00,1E,00,
262599327,00000095,false,Rx,0,8,80,00,07,F4,00,00,00,35,
262599343,000001A4,false,Rx,0,8,00,00,00,08,00,00,00,2F,
262599352,000001AA,false,Rx,0,8,7F,FF,00,00,00,00,68,2F,
262600445,000001B0,false,Rx,0,7,00,0F,00,00,00,01,66,00,
262600462,000001D0,false,Rx,0,8,00,00,00,00,00,00,00,0A,
262601543,00000166,false,Rx,0,4,D0,32,00,09,00,00,00,00,
262602627,00000158,false,Rx,0,8,00,00,00,00,00,00,00,0A,
262602636,00000161,false,Rx,0,8,00,00,05,50,01,08,00,0D,
262603716,00000191,false,Rx,0,7,01,00,90,A1,41,00,30,00,
262603724,00000133,false,Rx,0,5,00,00,00,00,98,00,00,00,
262603731,00000136,false,Rx,0,8,00,02,00,00,00,00,00,1B,
262603736,0000013A,false,Rx,0,8,00,00,00,00,00,00,00,19,
262604808,0000013F,false,Rx,0,8,00,00,00,05,00,00,00,1F,
262604815,00000164,false,Rx,0,8,00,00,C0,1A,A8,00,00,31,
262604820,0000017C,false,Rx,0,8,00,00,00,00,10,00,00,12,
262604824,0000018E,false,Rx,0,3,00,00,5C,00,00,00,00,00,
262605899,00000183,false,Rx,0,8,00,00,00,07,00,00,10,13,
262605906,00000039,false,Rx,0,2,00,0C,00,00,00,00,00,00,
262606975,00000143,false,Rx,0,4,6B,6B,00,D1,00,00,00,00,
262609116,00000095,false,Rx,0,8,80,00,07,F4,00,00,00,08,
262611244,00000166,false,Rx,0,4,D0,32,00,18,00,00,00,00,
262612328,00000158,false,Rx,0,8,00,00,00,00,00,00,00,19,
262613413,00000161,false,Rx,0,8,00,00,05,50,01,08,00,1C,
262613421,00000191,false,Rx,0,7,01,00,90,A1,41,00,03,00,
262613428,00000164,false,Rx,0,8,00,00,C0,1A,A8,00,00,04,
262613435,00000133,false,Rx,0,5,00,00,00,00,A7,00,00,00,
262614505,00000136,false,Rx,0,8,00,02,00,00,00,00,00,2A,
262614509,0000013A,false,Rx,0,8,00,00,00,00,00,00,00,28,
262614513,0000013F,false,Rx,0,8,00,00,00,05,00,00,00,2E,
262614517,0000017C,false,Rx,0,8,00,00,00,00,10,00,00,21,
262614521,0000018E,false,Rx,0,3,00,00,6B,00,00,00,00,00,
262615596,000001CF,false,Rx,0,6,80,05,00,00,00,1E,00,00,
262615605,000001DC,false,Rx,0,4,02,00,00,1B,00,00,00,00,
262615611,00000320,false,Rx,0,3,00,00,12,00,00,00,00,00,
262615618,00000324,false,Rx,0,8,74,65,00,00,00,00,0E,1A,
262615624,00000183,false,Rx,0,8,00,00,00,05,00,00,10,24,
262615630,0000037C,false,Rx,0,8,FD,00,FD,00,09,7F,00,1A,
262616702,00000143,false,Rx,0,4,6B,6B,00,E0,00,00,00,00,
262617777,00000305,false,Rx,0,2,80,26,00,00,00,00,00,00,
262618861,00000095,false,Rx,0,8,80,00,07,F4,00,00,00,17,
262619944,000001A4,false,Rx,0,8,00,00,00,08,00,00,00,3E,
262619956,000001AA,false,Rx,0,8,7F,FF,00,00,00,00,67,3F,
262619963,000001B0,false,Rx,0,7,00,0F,00,00,00,01,75,00,
262619970,000001D0,false,Rx,0,8,00,00,00,00,00,00,00,0A,
262621045,00000166,false,Rx,0,4,D0,32,00,27,00,00,00,00,
262623190,00000158,false,Rx,0,8,00,00,00,00,00,00,00,28,
262623208,00000161,false,Rx,0,8,00,00,05,50,01,08,00,2B,
262623213,00000191,false,Rx,0,7,01,00,90,A1,41,00,12,00,
262623219,0000018E,false,Rx,0,3,00,00,7A,00,00,00,00,00,
262623223,00000133,false,Rx,0,5,00,00,00,00,B6,00,00,00,
262624298,00000136,false,Rx,0,8,00,02,00,00,00,00,00,39,
262624307,0000013A,false,Rx,0,8,00,00,00,00,00,00,00,37,
262624313,0000013F,false,Rx,0,8,00,00,00,05,00,00,00,3D,
262624320,00000164,false,Rx,0,8,00,00,C0,1A,A8,00,00,13,
262625397,0000017C,false,Rx,0,8,00,00,00,00,10,00,00,30,
262625406,00000294,false,Rx,0,8,04,0B,00,02,CF,5A,00,3B,
262625413,0000021E,false,Rx,0,7,03,E8,37,45,22,06,3E,00,
262626483,00000039,false,Rx,0,2,00,1B,00,00,00,00,00,00,
262626489,00000183,false,Rx,0,8,00,00,00,0B,00,00,10,3D,
262626493,00000143,false,Rx,0,4,6B,6B,00,FF,00,00,00,00,
262628638,00000095,false,Rx,0,8,80,00,07,F4,00,00,00,26,
262631852,00000166,false,Rx,0,4,D0,32,00,36,00,00,00,00,
262632932,00000158,false,Rx,0,8,00,00,00,00,00,00,00,37,
262632941,00000161,false,Rx,0,8,00,00,05,50,01,08,00,3A,
262632947,00000191,false,Rx,0,7,01,00,90,A1,41,00,21,00,
262634023,00000164,false,Rx,0,8,00,00,C0,1A,A8,00,00,22,
262634032,00000133,false,Rx,0,5,00,00,00,00,89,00,00,00,
262634038,00000136,false,Rx,0,8,00,02,00,00,00,00,00,0C,
262634045,0000013A,false,Rx,0,8,00,00,00,00,00,00,00,0A,
262634050,0000013F,false,Rx,0,8,00,00,00,05,00,00,00,00,
262635128,0000017C,false,Rx,0,8,00,00,00,00,10,00,00,03,
262635136,0000018E,false,Rx,0,3,00,00,4D,00,00,00,00,00,
262635143,000001CF,false,Rx,0,6,80,05,00,00,00,2D,00,00,
262635148,000001DC,false,Rx,0,4,02,00,00,2A,00,00,00,00,
262636230,00000183,false,Rx,0,8,00,00,00,08,00,00,10,03,
262637314,00000143,false,Rx,0,4,6B,6B,00,C2,00,00,00,00,
262638399,00000095,false,Rx,0,8,80,00,07,F4,00,00,00,35,
262639475,000001A4,false,Rx,0,8,00,00,00,08,00,00,00,01,
262639482,000001AA,false,Rx,0,8,7F,FF,00,00,00,00,67,02,
262640556,000001B0,false,Rx,0,7,00,0F,00,00,00,01,48,00,
262640563,00000039,false,Rx,0,2,00,2A,00,00,00,00,00,00,
262640570,000001D0,false,Rx,0,8,00,00,00,00,00,00,00,0A,
262641666,00000166,false,Rx,0,4,D0,32,00,09,00,00,00,00,
262642751,00000158,false,Rx,0,8,00,00,00,00,00,00,00,0A,
262642763,00000161,false,Rx,0,8,00,00,05,50,01,08,00,0D,
262642771,00000191,false,Rx,0,7,01,00,90,A1,41,00,30,00,
262643844,00000164,false,Rx,0,8,00,00,C0,1A,A8,00,00,31,
262643851,00000133,false,Rx,0,5,00,00,00,00,98,00,00,00,
262643855,00000136,false,Rx,0,8,00,02,00,00,00,00,00,1B,
262643860,0000013A,false,Rx,0,8,00,00,00,00,00,00,00,19,
262644931,0000013F,false,Rx,0,8,00,00,00,05,00,00,00,1F,
262644938,0000017C,false,Rx,0,8,00,00,00,00,10,00,00,12,
262644942,0000018E,false,Rx,0,3,00,00,5C,00,00,00,00,00,
262644947,00000309,false,Rx,0,8,00,00,00,00,00,00,00,A2,
262646013,00000183,false,Rx,0,8,00,00,00,0D,00,00,10,1D,
262647093,00000143,false,Rx,0,4,6B,6B,00,D1,00,00,00,00,
262649224,00000095,false,Rx,0,8,80,00,07,F4,00,00,00,08,
262651372,00000166,false,Rx,0,4,D0,32,00,18,00,00,00,00,
262652450,00000158,false,Rx,0,8,00,00,00,00,00,00,00,19,
262653534,00000161,false,Rx,0,8,00,00,05,50,01,08,00,1C,
262653559,00000191,false,Rx,0,7,01,00,90,A1,41,00,03,00,
262653565,00000164,false,Rx,0,8,00,00,C0,1A,A8,00,00,04,
262653572,00000133,false,Rx,0,5,00,00,00,00,A7,00,00,00,
262653582,00000136,false,Rx,0,8,00,02,00,00,00,00,00,2A,
262654655,0000013A,false,Rx,0,8,00,00,00,00,00,00,00,28,
262654660,0000013F,false,Rx,0,8,00,00,00,05,00,00,00,2E,
262654664,0000017C,false,Rx,0,8,00,00,00,00,10,00,00,21,
262654668,0000018E,false,Rx,0,3,00,00,6B,00,00,00,00,00,
262654673,000001CF,false,Rx,0,6,80,05,00,00,00,3C,00,00,
262654677,000001DC,false,Rx,0,4,02,00,00,39,00,00,00,00,
262655753,00000183,false,Rx,0,8,00,00,00,09,00,00,10,20,
262655761,00000039,false,Rx,0,2,00,39,00,00,00,00,00,00,
262656840,00000143,false,Rx,0,4,6B,6B,00,E0,00,00,00,00,
262658982,00000095,false,Rx,0,8,80,00,07,F4,00,00,00,17,
262660057,000001A4,false,Rx,0,8,00,00,00,08,00,00,00,10,
262660065,000001AA,false,Rx,0,8,7F,FF,00,00,00,00,68,10,
262660072,000001B0,false,Rx,0,7,00,0F,00,00,00,01,57,00,
262660078,000001D0,false,Rx,0,8,00,00,00,00,00,00,00,0A,
262661153,00000166,false,Rx,0,4,D0,32,00,27,00,00,00,00,
262663291,00000158,false,Rx,0,8,00,00,00,00,00,00,00,28,
262663300,00000161,false,Rx,0,8,00,00,05,50,01,08,00,2B,
262663306,00000191,false,Rx,0,7,01,00,90,A1,41,00,12,00,
262663311,00000164,false,Rx,0,8,00,00,C0,1A,A8,00,00,13,
262663317,00000133,false,Rx,0,5,00,00,00,00,B6,00,00,00,
262664390,00000136,false,Rx,0,8,00,02,00,00,00,00,00,39,
262664397,0000013A,false,Rx,0,8,00,00,00,00,00,00,00,37,
262664403,0000013F,false,Rx,0,8,00,00,00,05,00,00,00,3D,
262664409,0000017C,false,Rx,0,8,00,00,00,00,10,00,00,30,
262665482,0000018E,false,Rx,0,3,00,00,7A,00,00,00,00,00,
262665489,00000294,false,Rx,0,8,04,0B,00,02,CF,5A,00,0E,
262665496,0000021E,false,Rx,0,7,03,E8,37,45,22,06,01,00,
262666573,00000183,false,Rx,0,8,00,00,00,06,00,00,10,32,
262666581,00000143,false,Rx,0,4,6B,6B,00,FF,00,00,00,00,
262668716,00000095,false,Rx,0,8,80,00,07,F4,00,00,00,26,
262668723,000005A1,false,Rx,0,8,96,00,00,00,00,00,62,10,
262669801,00000039,false,Rx,0,2,00,0C,00,00,00,00,00,00,
262671944,00000166,false,Rx,0,4,D0,32,00,36,00,00,00,00,
262673019,00000158,false,Rx,0,8,00,00,00,00,00,00,00,37,
262673031,00000161,false,Rx,0,8,00,00,05,50,01,08,00,3A,
262673035,00000191,false,Rx,0,7,01,00,90,A1,41,00,21,00,
262673039,00000164,false,Rx,0,8,00,00,C0,1A,A8,00,00,22,
262674115,00000133,false,Rx,0,5,00,00,00,00,89,00,00,00,
262674123,00000136,false,Rx,0,8,00,02,00,00,00,00,00,0C,
262674127,0000013A,false,Rx,0,8,00,00,00,00,00,00,00,0A,
262674129,0000013F,false,Rx,0,8,00,00,00,05,00,00,00,00,
262674134,0000017C,false,Rx,0,8,00,00,00,00,10,00,00,03,
262675209,0000018E,false,Rx,0,3,00,00,4D,00,00,00,00,00,
262675217,000001CF,false,Rx,0,6,80,05,00,00,00,0F,00,00,
262675222,000001DC,false,Rx,0,4,02,00,00,0C,00,00,00,00,
262675226,00000183,false,Rx,0,8,00,00,00,0C,00,00,10,0F,
262677364,00000143,false,Rx,0,4,6B,6B,00,C2,00,00,00,00,
262678446,00000095,false,Rx,0,8,80,00,07,F4,00,00,00,35,
262679523,000001A4,false,Rx,0,8,00,00,00,08,00,00,00,2F,
262679532,000001AA,false,Rx,0,8,7F,FF,00,00,00,00,68,2F,
262679537,000001B0,false,Rx,0,7,00,0F,00,00,00,01,66,00,
262680609,000001D0,false,Rx,0,8,00,00,00,00,00,00,00,0A,
262681686,00000166,false,Rx,0,4,D0,32,00,09,00,00,00,00,
262682757,00000158,false,Rx,0,8,00,00,00,00,00,00,00,0A,
262682763,00000161,false,Rx,0,8,00,00,05,50,01,08,00,0D,
262682768,00000191,false,Rx,0,7,01,00,90,A1,41,00,30,00,
262683840,00000164,false,Rx,0,8,00,00,C0,1A,A8,00,00,31,
262683848,00000133,false,Rx,0,5,00,00,00,00,98,00,00,00,
262683855,00000136,false,Rx,0,8,00,02,00,00,00,00,00,1B,
262683861,0000013A,false,Rx,0,8,00,00,00,00,00,00,00,19,
262684938,0000013F,false,Rx,0,8,00,00,00,05,00,00,00,1F,
262684946,0000017C,false,Rx,0,8,00,00,00,00,10,00,00,12,
262684953,0000018E,false,Rx,0,3,00,00,5C,00,00,00,00,00,
262684959,00000039,false,Rx,0,2,00,1B,00,00,00,00,00,00,
262686034,00000183,false,Rx,0,8,00,00,00,09,00,00,10,11,
262687109,00000143,false,Rx,0,4,6B,6B,00,D1,00,00,00,00,
262689247,00000095,false,Rx,0,8,80,00,07,F4,00,00,00,08,
262691390,00000166,false,Rx,0,4,D0,32,00,18,00,00,00,00,
262692468,00000158,false,Rx,0,8,00,00,00,00,00,00,00,19,
262693544,00000161,false,Rx,0,8,00,00,05,50,01,08,00,1C,
262693552,00000191,false,Rx,0,7,01,00,90,A1,41,00,03,00,
262693559,00000164,false,Rx,0,8,00,00,C0,1A,A8,00,00,04,
262693565,00000133,false,Rx,0,5,00,00,00,00,A7,00,00,00,
262693572,00000136,false,Rx,0,8,00,02,00,00,00,00,00,2A,
262694647,0000013A,false,Rx,0,8,00,00,00,00,00,00,00,28,
262694654,0000013F,false,Rx,0,8,00,00,00,05,00,00,00,2E,
262694659,0000017C,false,Rx,0,8,00,00,00,00,10,00,00,21,
262694663,0000018E,false,Rx,0,3,00,00,6B,00,00,00,00,00,
262694668,000001CF,false,Rx,0,6,80,05,00,00,00,1E,00,00,
262694676,000001DC,false,Rx,0,4,02,00,00,1B,00,00,00,00,
262695757,00000183,false,Rx,0,8,00,00,00,06,00,00,10,23,
262696833,00000143,false,Rx,0,4,6B,6B,00,E0,00,00,00,00,
262697910,00000333,false,Rx,0,7,00,00,00,00,00,00,2D,00,
262697919,00000039,false,Rx,0,2,00,2A,00,00,00,00,00,00,
262698990,00000095,false,Rx,0,8,80,00,07,F4,00,00,00,17,
262700061,000001A4,false,Rx,0,8,00,00,00,08,00,00,00,3E,
262700066,000001AA,false,Rx,0,8,7F,FF,00,00,00,00,67,3F,
262700071,000001B0,false,Rx,0,7,00,0F,00,00,00,01,75,00,
262700075,000001D0,false,Rx,0,8,00,00,00,00,00,00,00,0A,
262701160,00000166,false,Rx,0,4,D0,32,00,27,00,00,00,00,
262703288,00000158,false,Rx,0,8,00,00,00,00,00,00,00,28,
262703296,00000161,false,Rx,0,8,00,00,05,50,01,08,00,2B,
262703300,00000191,false,Rx,0,7,01,00,90,A1,41,00,12,00,
262703303,00000133,false,Rx,0,5,00,00,00,00,B6,00,00,00,
262704379,00000136,false,Rx,0,8,00,02,00,00,00,00,00,39,
262704387,0000013A,false,Rx,0,8,00,00,00,00,00,00,00,37,
262704394,0000013F,false,Rx,0,8,00,00,00,05,00,00,00,3D,
262704399,00000164,false,Rx,0,8,00,00,C0,1A,A8,00,00,13,
262704404,0000017C,false,Rx,0,8,00,00,00,00,10,00,00,30,
262705478,0000018E,false,Rx,0,3,00,00,7A,00,00,00,00,00,
262705487,00000294,false,Rx,0,8,04,0B,00,02,CF,5A,00,1D,
262705492,0000021E,false,Rx,0,7,03,E8,37,45,22,06,10,00,
262706568,00000183,false,Rx,0,8,00,00,00,0C,00,00,10,3C,
262706573,00000143,false,Rx,0,4,6B,6B,00,FF,00,00,00,00,
262708716,00000095,false,Rx,0,8,80,00,07,F4,00,00,00,26,
262711924,00000166,false,Rx,0,4,D0,32,00,36,00,00,00,00,
262711933,00000039,false,Rx,0,2,00,39,00,00,00,00,00,00,
262713011,00000158,false,Rx,0,8,00,00,00,00,00,00,00,37,
262713020,00000161,false,Rx,0,8,00,00,05,50,01,08,00,3A,
262713027,00000191,false,Rx,0,7,01,00,10,A1,41,00,29,00,
262713033,00000164,false,Rx,0,8,00,00,C0,1A,A8,00,00,22,
262714112,00000133,false,Rx,0,5,00,00,00,00,89,00,00,00,
262714119,00000136,false,Rx,0,8,00,02,00,00,00,00,00,0C,
262714125,0000013A,false,Rx,0,8,00,00,00,00,00,00,00,0A,
262714132,0000013F,false,Rx,0,8,00,00,00,05,00,00,00,00,
262715219,0000017C,false,Rx,0,8,00,00,00,00,10,00,00,03,
262715227,0000018E,false,Rx,0,3,00,00,4D,00,00,00,00,00,
262715233,000001CF,false,Rx,0,6,80,05,00,00,00,2D,00,00,
262715239,000001DC,false,Rx,0,4,02,00,00,2A,00,00,00,00,
262715245,00000320,false,Rx,0,3,00,00,21,00,00,00,00,00,
262715250,00000324,false,Rx,0,8,74,65,00,00,00,00,0E,29,
262716326,00000183,false,Rx,0,8,00,00,00,09,00,00,10,02,
262716335,0000037C,false,Rx,0,8,FD,00,FD,00,09,7F,00,29,
262717419,00000143,false,Rx,0,4,6B,6B,00,C2,00,00,00,00,
262718519,00000095,false,Rx,0,8,80,00,07,F8,00,00,00,31,
262719605,000001A4,false,Rx,0,8,00,00,00,08,00,00,00,01,
262719611,000001AA,false,Rx,0,8,7F,FF,00,00,00,00,67,02,
262719616,000001B0,false,Rx,0,7,00,0F,00,00,00,01,48,00,
262720682,000001D0,false,Rx,0,8,00,00,00,00,00,00,00,0A,
262721760,00000166,false,Rx,0,4,D0,32,00,09,00,00,00,00,
262722837,00000158,false,Rx,0,8,00,00,00,00,00,00,00,0A,
262722845,00000161,false,Rx,0,8,00,00,05,50,01,08,00,0D,
262722853,00000191,false,Rx,0,7,01,00,10,A1,41,00,38,00,
262723932,00000133,false,Rx,0,5,00,00,00,00,98,00,00,00,
262723940,00000136,false,Rx,0,8,00,02,00,00,00,00,00,1B,
262723945,0000013A,false,Rx,0,8,00,00,00,00,00,00,00,19,
262723950,0000013F,false,Rx,0,8,00,00,00,05,00,00,00,1F,
262725025,00000164,false,Rx,0,8,00,00,C0,1A,A8,00,00,31,
262725033,00000039,false,Rx,0,2,00,0C,00,00,00,00,00,00,
262725040,0000017C,false,Rx,0,8,00,00,00,00,10,00,00,12,
262725046,0000018E,false,Rx,0,3,00,00,5C,00,00,00,00,00,
262725051,00000305,false,Rx,0,2,80,35,00,00,00,00,00,00,
262726134,00000183,false,Rx,0,8,00,00,00,0E,00,00,10,1C,
262727208,00000143,false,Rx,0,4,6B,6B,00,D1,00,00,00,00,
262729350,00000095,false,Rx,0,8,80,00,07,F8,00,00,00,04,
262731499,00000166,false,Rx,0,4,D0,32,00,18,00,00,00,00,
262732583,00000158,false,Rx,0,8,00,00,00,00,00,00,00,19,
262732592,00000161,false,Rx,0,8,00,00,05,50,01,08,00,1C,
262733673,00000191,false,Rx,0,7,01,00,10,A1,41,00,0B,00,
262733686,00000164,false,Rx,0,8,00,00,C0,1A,A8,00,00,04,
262733695,00000133,false,Rx,0,5,00,00,00,00,A7,00,00,00,
262733711,00000136,false,Rx,0,8,00,02,00,00,00,00,00,2A,
262733720,0000013A,false,Rx,0,8,00,00,00,00,00,00,00,28,
262734805,0000013F,false,Rx,0,8,00,00,00,05,00,00,00,2E,
262734816,0000017C,false,Rx,0,8,00,00,00,00,10,00,00,21,
262734823,0000018E,false,Rx,0,3,00,00,6B,00,00,00,00,00,
262734830,000001CF,false,Rx,0,6,80,05,00,00,00,3C,00,00,
262734836,000001DC,false,Rx,0,4,02,00,00,39,00,00,00,00,
262735910,00000183,false,Rx,0,8,00,00,00,0A,00,00,10,2F,
262736983,00000143,false,Rx,0,4,6B,6B,00,E0,00,00,00,00,
262739131,00000095,false,Rx,0,8,80,00,07,F8,00,00,00,13,
262739140,00000039,false,Rx,0,2,00,1B,00,00,00,00,00,00,
262739147,000001A4,false,Rx,0,8,00,00,00,08,00,00,00,10,
262740233,000001AA,false,Rx,0,8,7F,FF,00,00,00,00,68,10,
262740241,000001B0,false,Rx,0,7,00,0F,00,00,00,01,57,00,
262740250,000001D0,false,Rx,0,8,00,00,00,00,00,00,00,0A,
262741329,00000166,false,Rx,0,4,D0,32,00,27,00,00,00,00,
262742407,00000158,false,Rx,0,8,00,00,00,00,00,00,00,28,
262743481,00000161,false,Rx,0,8,00,00,05,50,01,08,00,2B,
262743490,00000191,false,Rx,0,7,01,00,10,A1,41,00,1A,00,
262743497,00000164,false,Rx,0,8,00,00,C0,1A,A8,00,00,13,
262743503,00000133,false,Rx,0,5,00,00,00,00,B6,00,00,00,
262743508,00000136,false,Rx,0,8,00,02,00,00,00,00,00,39,
262744586,0000013A,false,Rx,0,8,00,00,00,00,00,00,00,37,
262744595,0000013F,false,Rx,0,8,00,00,00,05,00,00,00,3D,
262744602,0000017C,false,Rx,0,8,00,00,00,00,10,00,00,30,
262744608,0000018E,false,Rx,0,3,00,00,7A,00,00,00,00,00,
262745685,00000294,false,Rx,0,8,04,0B,00,02,CF,5A,00,2C,
262745693,0000021E,false,Rx,0,7,03,E8,37,45,22,06,2F,00,
262745700,00000309,false,Rx,0,8,00,00,00,00,00,00,00,B1,
262746787,00000183,false,Rx,0,8,00,00,00,07,00,00,10,31,
262746794,00000143,false,Rx,0,4,6B,6B,00,FF,00,00,00,00,
262748933,00000095,false,Rx,0,8,80,00,07,F8,00,00,00,22,
262751085,00000166,false,Rx,0,4,D0,32,00,36,00,00,00,00,
262753214,00000158,false,Rx,0,8,00,00,00,00,00,00,00,37,
262753220,00000161,false,Rx,0,8,00,00,05,50,01,08,00,3A,
262753225,00000191,false,Rx,0,7,01,00,10,A1,41,00,29,00,
262753230,00000164,false,Rx,0,8,00,00,C0,1A,A8,00,00,22,
262753239,00000133,false,Rx,0,5,00,00,00,00,89,00,00,00,
262754314,00000136,false,Rx,0,8,00,02,00,00,00,00,00,0C,
262754322,0000013A,false,Rx,0,8,00,00,00,00,00,00,00,0A,
262754328,00000039,false,Rx,0,2,00,2A,00,00,00,00,00,00,
262754335,0000013F,false,Rx,0,8,00,00,00,05,00,00,00,00,
262754341,0000017C,false,Rx,0,8,00,00,00,00,10,00,00,03,
262755423,0000018E,false,Rx,0,3,00,00,4D,00,00,00,00,00,
262755431,000001CF,false,Rx,0,6,80,05,00,00,00,0F,00,00,
262755437,000001DC,false,Rx,0,4,02,00,00,0C,00,00,00,00,
262755443,00000183,false,Rx,0,8,00,00,00,0D,00,00,10,0E,
262756513,00000143,false,Rx,0,4,6B,6B,00,C2,00,00,00,00,
262758632,00000095,false,Rx,0,8,80,00,07,F8,00,00,00,31,
262759714,000001A4,false,Rx,0,8,00,00,00,08,00,00,00,2F,
262759721,000001AA,false,Rx,0,8,7F,FF,00,00,00,00,68,2F,
262759726,000001B0,false,Rx,0,7,00,0F,00,00,00,01,66,00,
262760799,000001D0,false,Rx,0,8,00,00,00,00,00,00,00,0A,
262761875,00000166,false,Rx,0,4,D0,32,00,09,00,00,00,00,
262762952,00000158,false,Rx,0,8,00,00,00,00,00,00,00,0A,
262762957,00000161,false,Rx,0,8,00,00,05,50,01,08,00,0D,
262762962,00000191,false,Rx,0,7,01,00,10,A1,41,00,38,00,
262764035,00000133,false,Rx,0,5,00,00,00,00,98,00,00,00,
262764043,00000136,false,Rx,0,8,00,02,00,00,00,00,00,1B,
262764049,0000013A,false,Rx,0,8,00,00,00,00,00,00,00,19,
262764056,0000013F,false,Rx,0,8,00,00,00,05,00,00,00,1F,
262764062,00000164,false,Rx,0,8,00,00,C0,1A,A8,00,00,31,
262765131,0000017C,false,Rx,0,8,00,00,00,00,10,00,00,12,
262765136,0000018E,false,Rx,0,3,00,00,5C,00,00,00,00,00,
262766221,00000183,false,Rx,0,8,00,00,00,09,00,00,10,11,
262767296,00000143,false,Rx,0,4,6B,6B,00,D1,00,00,00,00,
262768368,00000039,false,Rx,0,2,00,39,00,00,00,00,00,00,
262768372,00000095,false,Rx,0,8,80,00,07,F4,00,00,00,08,
262771584,00000166,false,Rx,0,4,D0,32,00,18,00,00,00,00,
262772661,00000158,false,Rx,0,8,00,00,00,00,00,00,00,19,
262772669,00000161,false,Rx,0,8,00,00,05,50,01,08,00,1C,
262773743,00000191,false,Rx,0,7,01,00,10,A1,41,00,0B,00,
262773752,00000164,false,Rx,0,8,00,00,C0,1A,A8,00,00,04,
262773759,00000133,false,Rx,0,5,00,00,00,00,A7,00,00,00,
262773765,00000136,false,Rx,0,8,00,02,00,00,00,00,00,2A,
262774841,0000013A,false,Rx,0,8,00,00,00,00,00,00,00,28,
262774850,0000013F,false,Rx,0,8,00,00,00,05,00,00,00,2E,
262774856,0000017C,false,Rx,0,8,00,00,00,00,10,00,00,21,
262774862,0000018E,false,Rx,0,3,00,00,6B,00,00,00,00,00,
262774868,000001CF,false,Rx,0,6,80,05,00,00,00,1E,00,00,
262774878,000001DC,false,Rx,0,4,02,00,00,1B,00,00,00,00,
262775950,00000183,false,Rx,0,8,00,00,00,0E,00,00,10,2B,
262777024,00000143,false,Rx,0,4,6B,6B,00,E0,00,00,00,00,
262779166,00000095,false,Rx,0,8,80,00,07,F4,00,00,00,17,
262779175,000001A4,false,Rx,0,8,00,00,00,08,00,00,00,3E,
262780218,000001AA,false,Rx,0,8,7F,FF,00,00,00,00,67,3F,
262780226,000001B0,false,Rx,0,7,00,0F,00,00,00,01,75,00,
262780233,000001D0,false,Rx,0,8,00,00,00,00,00,00,00,0A,
262781310,00000166,false,Rx,0,4,D0,32,00,27,00,00,00,00,
262782402,00000158,false,Rx,0,8,00,00,00,00,00,00,00,28,
262783480,00000161,false,Rx,0,8,00,00,05,50,01,08,00,2B,
262783487,00000039,false,Rx,0,2,00,0C,00,00,00,00,00,00,
262783491,00000191,false,Rx,0,7,01,00,10,A1,41,00,1A,00,
262783495,00000133,false,Rx,0,5,00,00,00,00,B6,00,00,00,
262783499,00000136,false,Rx,0,8,00,02,00,00,00,00,00,39,
262784573,0000013A,false,Rx,0,8,00,00,00,00,00,00,00,37,
262784577,0000013F,false,Rx,0,8,00,00,00,05,00,00,00,3D,
262784582,00000164,false,Rx,0,8,00,00,C0,1A,A8,00,00,13,
262784587,0000017C,false,Rx,0,8,00,00,00,00,10,00,00,30,
262784591,0000018E,false,Rx,0,3,00,00,7A,00,00,00,00,00,
262785663,00000294,false,Rx,0,8,04,0B,00,02,CF,5A,00,3B,
262785669,0000021E,false,Rx,0,7,03,E8,37,45,22,06,3E,00,
262786751,00000183,false,Rx,0,8,00,00,00,0A,00,00,10,3E,
262786759,00000143,false,Rx,0,4,6B,6B,00,FF,00,00,00,00,
262788909,00000095,false,Rx,0,8,80,00,07,F4,00,00,00,26,
262791052,00000166,false,Rx,0,4,D0,32,00,36,00,00,00,00,
262793215,00000158,false,Rx,0,8,00,00,00,00,00,00,00,37,
262793223,00000161,false,Rx,0,8,00,00,05,50,01,08,00,3A,
262793230,00000191,false,Rx,0,7,01,00,10,A1,41,00,29,00,
262793236,00000164,false,Rx,0,8,00,00,C0,1A,A8,00,00,22,
262794311,00000133,false,Rx,0,5,00,00,00,00,89,00,00,00,
262794319,00000136,false,Rx,0,8,00,02,00,00,00,00,00,0C,
262794325,0000013A,false,Rx,0,8,00,00,00,00,00,00,00,0A,
262794332,0000013F,false,Rx,0,8,00,00,00,05,00,00,00,00,
262794338,0000017C,false,Rx,0,8,00,00,00,00,10,00,00,03,
262795409,0000018E,false,Rx,0,3,00,00,4D,00,00,00,00,00,
262795415,000001CF,false,Rx,0,6,80,05,00,00,00,2D,00,00,
262795419,000001DC,false,Rx,0,4,02,00,00,2A,00,00,00,00,
262795424,00000183,false,Rx,0,8,00,00,00,07,00,00,10,04,
262796496,00000143,false,Rx,0,4,6B,6B,00,C2,00,00,00,00,
262797571,00000333,false,Rx,0,7,00,00,00,00,00,00,3C,00,
262798662,00000095,false,Rx,0,8,80,00,07,F4,00,00,00,35,
262799744,000001A4,false,Rx,0,8,00,00,00,08,00,00,00,01,
262799752,000001AA,false,Rx,0,8,7F,FF,00,00,00,00,68,01,
262799756,000001B0,false,Rx,0,7,00,0F,00,00,00,01,48,00,
262799761,000001D0,false,Rx,0,8,00,00,00,00,00,00,00,0A,
262801900,00000166,false,Rx,0,4,D0,32,00,09,00,00,00,00,
262801909,00000039,false,Rx,0,2,00,1B,00,00,00,00,00,00,
262802983,00000158,false,Rx,0,8,00,00,00,00,00,00,00,0A,
262802989,00000161,false,Rx,0,8,00,00,05,50,01,08,00,0D,
262802996,00000191,false,Rx,0,7,01,00,10,A1,41,00,38,00,
262804069,00000133,false,Rx,0,5,00,00,00,00,98,00,00,00,
262804080,00000136,false,Rx,0,8,00,02,00,00,00,00,00,1B,
262804086,0000013A,false,Rx,0,8,00,00,00,00,00,00,00,19,
262804092,0000013F,false,Rx,0,8,00,00,00,05,00,00,00,1F,
262804098,00000164,false,Rx,0,8,00,00,C0,1A,A8,00,00,31,
262805175,0000017C,false,Rx,0,8,00,00,00,00,10,00,00,12,
262805184,0000018E,false,Rx,0,3,00,00,5C,00,00,00,00,00,
262806262,00000183,false,Rx,0,8,00,00,00,0D,00,00,10,1D,
262807334,00000143,false,Rx,0,4,6B,6B,00,D1,00,00,00,00,
262808409,00000095,false,Rx,0,8,80,00,07,F8,00,00,00,04,
262811624,00000166,false,Rx,0,4,D0,32,00,18,00,00,00,00,
262812698,00000158,false,Rx,0,8,00,00,00,00,00,00,00,19,
262812707,00000161,false,Rx,0,8,00,00,05,50,01,08,00,1C,
262813786,00000191,false,Rx,0,7,01,00,10,A1,41,00,0B,00,
262813794,00000164,false,Rx,0,8,00,00,C0,1A,A8,00,00,04,
262813800,00000133,false,Rx,0,5,00,00,00,00,A7,00,00,00,
262813805,00000136,false,Rx,0,8,00,02,00,00,00,00,00,2A,
262813812,0000013A,false,Rx,0,8,00,00,00,00,00,00,00,28,
262814920,0000013F,false,Rx,0,8,00,00,00,05,00,00,00,2E,
262814937,0000017C,false,Rx,0,8,00,00,00,00,10,00,00,21,
262814946,0000018E,false,Rx,0,3,00,00,6B,00,00,00,00,00,
262814954,000001CF,false,Rx,0,6,80,05,00,00,00,3C,00,00,
262814963,000001DC,false,Rx,0,4,02,00,00,39,00,00,00,00,
262814972,00000320,false,Rx,0,3,00,00,30,00,00,00,00,00,
262816049,00000324,false,Rx,0,8,74,65,00,00,00,00,0E,38,
262816060,00000183,false,Rx,0,8,00,00,00,09,00,00,10,20,
262816066,0000037C,false,Rx,0,8,FD,00,FD,00,09,7F,00,38,
262816073,00000039,false,Rx,0,2,00,2A,00,00,00,00,00,00,
262816082,0000040C,false,Rx,0,8,00,00,00,00,04,00,00,13,
262817151,00000454,false,Rx,0,3,23,EF,18,00,00,00,00,00,
262817155,00000143,false,Rx,0,4,6B,6B,00,E0,00,00,00,00,
262819292,00000095,false,Rx,0,8,80,00,07,F8,00,00,00,13,
262819300,000001A4,false,Rx,0,8,00,00,00,08,00,00,00,10,
262820375,000001AA,false,Rx,0,8,7F,FF,00,00,00,00,68,10,
262820383,000001B0,false,Rx,0,7,00,0F,00,00,00,01,57,00,
262820390,000001D0,false,Rx,0,8,00,00,00,00,00,00,00,0A,
262821465,00000166,false,Rx,0,4,D0,32,00,27,00,00,00,00,
262822542,00000158,false,Rx,0,8,00,00,00,00,00,00,00,28,
262822550,00000161,false,Rx,0,8,00,00,05,50,01,08,00,2B,
262823630,00000191,false,Rx,0,7,01,00,10,A1,41,00,1A,00,
262823638,00000133,false,Rx,0,5,00,00,00,00,B6,00,00,00,
262823644,00000136,false,Rx,0,8,00,02,00,00,00,00,00,39,
262823651,0000013A,false,Rx,0,8,00,00,00,00,00,00,00,37,
262824725,0000013F,false,Rx,0,8,00,00,00,05,00,00,00,3D,
262824733,00000164,false,Rx,0,8,00,00,C0,1A,A8,00,00,13,
262824740,0000017C,false,Rx,0,8,00,00,00,00,10,00,00,30,
262824747,0000018E,false,Rx,0,3,00,00,7A,00,00,00,00,00,
262824752,00000294,false,Rx,0,8,04,0B,00,02,CF,5A,00,0E,
262825832,0000021E,false,Rx,0,7,03,E8,37,45,22,06,01,00,
262825842,00000183,false,Rx,0,8,00,00,00,06,00,00,10,32,
262826916,00000143,false,Rx,0,4,6B,6B,00,FF,00,00,00,00,
262829057,00000095,false,Rx,0,8,80,00,07,F8,00,00,00,22,
262829066,00000039,false,Rx,0,2,00,39,00,00,00,00,00,00,
262830139,00000305,false,Rx,0,2,80,08,00,00,00,00,00,00,
262831226,00000166,false,Rx,0,4,D0,32,00,36,00,00,00,00,
262832313,00000158,false,Rx,0,8,00,00,00,00,00,00,00,37,
262833385,00000161,false,Rx,0,8,00,00,05,50,01,08,00,3A,
262833390,00000191,false,Rx,0,7,01,00,10,A1,41,00,29,00,
262833394,00000164,false,Rx,0,8,00,00,C0,1A,A8,00,00,22,
262833398,00000133,false,Rx,0,5,00,00,00,00,89,00,00,00,
262833402,00000136,false,Rx,0,8,00,02,00,00,00,00,00,0C,
262834475,0000013A,false,Rx,0,8,00,00,00,00,00,00,00,0A,
262834483,0000013F,false,Rx,0,8,00,00,00,05,00,00,00,00,
262834490,0000017C,false,Rx,0,8,00,00,00,00,10,00,00,03,
262834496,0000018E,false,Rx,0,3,00,00,4D,00,00,00,00,00,
262834502,000001CF,false,Rx,0,6,80,05,00,00,00,0F,00,00,
262835576,000001DC,false,Rx,0,4,02,00,00,0C,00,00,00,00,
262835584,00000183,false,Rx,0,8,00,00,00,0C,00,00,10,0F,
262836660,00000143,false,Rx,0,4,6B,6B,00,C2,00,00,00,00,
262838806,00000095,false,Rx,0,8,80,00,07,F8,00,00,00,31,
262839882,000001A4,false,Rx,0,8,00,00,00,08,00,00,00,2F,
262839890,000001AA,false,Rx,0,8,7F,FF,00,00,00,00,68,2F,
262839897,000001B0,false,Rx,0,7,00,0F,00,00,00,01,66,00,
262839904,000001D0,false,Rx,0,8,00,00,00,00,00,00,00,0A,
262842045,00000166,false,Rx,0,4,D0,32,00,09,00,00,00,00,
262843125,00000158,false,Rx,0,8,00,00,00,00,00,00,00,0A,
262843133,00000161,false,Rx,0,8,00,00,05,50,01,08,00,0D,
262843140,00000191,false,Rx,0,7,01,00,10,A1,41,00,38,00,
262843146,00000164,false,Rx,0,8,00,00,C0,1A,A8,00,00,31,
262844218,00000133,false,Rx,0,5,00,00,00,00,98,00,00,00,
262844226,00000136,false,Rx,0,8,00,02,00,00,00,00,00,1B,
262844232,00000039,false,Rx,0,2,00,0C,00,00,00,00,00,00,
262844237,0000013A,false,Rx,0,8,00,00,00,00,00,00,00,19,
262844243,0000013F,false,Rx,0,8,00,00,00,05,00,00,00,1F,
262845319,0000017C,false,Rx,0,8,00,00,00,00,10,00,00,12,
262845327,0000018E,false,Rx,0,3,00,00,5C,00,00,00,00,00,
262845334,00000309,false,Rx,0,8,00,00,00,00,00,00,00,84,
262845340,00000428,false,Rx,0,7,01,04,00,00,52,1C,2F,00,
262846418,00000405,false,Rx,0,8,00,00,04,00,00,00,00,29,
262846427,00000183,false,Rx,0,8,00,00,00,09,00,00,10,11,
262847503,00000143,false,Rx,0,4,6B,6B,00,D1,00,00,00,00,
262848576,00000095,false,Rx,0,8,80,00,07,F8,00,00,00,04,
262851805,00000166,false,Rx,0,4,D0,32,00,18,00,00,00,00,
262852886,00000158,false,Rx,0,8,00,00,00,00,00,00,00,19,
262852895,00000161,false,Rx,0,8,00,00,05,50,01,08,00,1C,
262852901,00000191,false,Rx,0,7,01,00,10,A1,41,00,0B,00,
262853979,00000164,false,Rx,0,8,00,00,C0,1A,A8,00,00,04,
262853987,00000133,false,Rx,0,5,00,00,00,00,A7,00,00,00,
262853994,00000136,false,Rx,0,8,00,02,00,00,00,00,00,2A,
262854000,0000013A,false,Rx,0,8,00,00,00,00,00,00,00,28,
262854006,0000013F,false,Rx,0,8,00,00,00,05,00,00,00,2E,
262855085,0000017C,false,Rx,0,8,00,00,00,00,10,00,00,21,
262855093,0000018E,false,Rx,0,3,00,00,6B,00,00,00,00,00,
262855100,000001CF,false,Rx,0,6,80,05,00,00,00,1E,00,00,
262855106,000001DC,false,Rx,0,4,02,00,00,1B,00,00,00,00,
262856180,00000183,false,Rx,0,8,00,00,00,0E,00,00,10,2B,
262857223,00000143,false,Rx,0,4,6B,6B,00,E0,00,00,00,00,
262859368,00000095,false,Rx,0,8,80,00,07,F8,00,00,00,13,
262859377,00000039,false,Rx,0,2,00,1B,00,00,00,00,00,00,
262859384,000001A4,false,Rx,0,8,00,00,00,08,00,00,00,3E,
262859389,000001AA,false,Rx,0,8,7F,FF,00,00,00,00,67,3F,
262860463,000001B0,false,Rx,0,7,00,0F,00,00,00,01,75,00,
262860471,000001D0,false,Rx,0,8,00,00,00,00,00,00,00,0A,
262861546,00000166,false,Rx,0,4,D0,32,00,27,00,00,00,00,
262862624,00000158,false,Rx,0,8,00,00,00,00,00,00,00,28,
262862632,00000161,false,Rx,0,8,00,00,05,50,01,08,00,2B,
262863717,00000191,false,Rx,0,7,01,00,10,A1,41,00,1A,00,
262863732,00000164,false,Rx,0,8,00,00,C0,1A,A8,00,00,13,
262863740,00000133,false,Rx,0,5,00,00,00,00,B6,00,00,00,
262863747,00000136,false,Rx,0,8,00,02,00,00,00,00,00,39,
262863753,0000013A,false,Rx,0,8,00,00,00,00,00,00,00,37,
262864828,0000013F,false,Rx,0,8,00,00,00,05,00,00,00,3D,
262864834,0000017C,false,Rx,0,8,00,00,00,00,10,00,00,30,
262864837,0000018E,false,Rx,0,3,00,00,7A,00,00,00,00,00,
262864841,00000294,false,Rx,0,8,04,0B,00,02,CF,5A,00,1D,
262865919,0000021E,false,Rx,0,7,03,E8,37,45,22,06,10,00,
262865927,00000183,false,Rx,0,8,00,00,00,0A,00,00,10,3E,
262867003,00000143,false,Rx,0,4,6B,6B,00,FF,00,00,00,00,
262869145,00000095,false,Rx,0,8,80,00,07,F4,00,00,00,26,
262871290,00000166,false,Rx,0,4,D0,32,00,36,00,00,00,00,
262872366,00000158,false,Rx,0,8,00,00,00,00,00,00,00,37,
262873448,00000161,false,Rx,0,8,00,00,05,50,01,08,00,3A,
262873456,00000039,false,Rx,0,2,00,2A,00,00,00,00,00,00,
262873462,00000191,false,Rx,0,7,01,00,10,A1,41,00,29,00,
262873469,00000164,false,Rx,0,8,00,00,C0,1A,A8,00,00,22,
262873475,00000133,false,Rx,0,5,00,00,00,00,89,00,00,00,
262874549,00000136,false,Rx,0,8,00,02,00,00,00,00,00,0C,
262874557,0000013A,false,Rx,0,8,00,00,00,00,00,00,00,0A,
262874564,0000013F,false,Rx,0,8,00,00,00,05,00,00,00,00,
262874570,0000017C,false,Rx,0,8,00,00,00,00,10,00,00,03,
262874576,0000018E,false,Rx,0,3,00,00,4D,00,00,00,00,00,
262875650,000001CF,false,Rx,0,6,80,05,00,00,00,2D,00,00,
262875658,000001DC,false,Rx,0,4,02,00,00,2A,00,00,00,00,
262875664,00000183,false,Rx,0,8,00,00,00,0F,00,00,10,0C,
262876738,00000143,false,Rx,0,4,6B,6B,00,C2,00,00,00,00,
262878883,00000095,false,Rx,0,8,80,00,07,F4,00,00,00,35,
262879966,000001A4,false,Rx,0,8,00,00,00,08,00,00,00,01,
262879978,000001AA,false,Rx,0,8,7F,FF,00,00,00,00,68,01,
262879986,000001B0,false,Rx,0,7,00,0F,00,00,00,01,48,00,
262879992,000001D0,false,Rx,0,8,00,00,00,00,00,00,00,0A,
262881064,00000166,false,Rx,0,4,D0,32,00,09,00,00,00,00,
262883214,00000158,false,Rx,0,8,00,00,00,00,00,00,00,0A,
262883221,00000161,false,Rx,0,8,00,00,05,50,01,08,00,0D,
262883229,00000191,false,Rx,0,7,01,00,10,A1,41,00,38,00,
262883235,00000164,false,Rx,0,8,00,00,C0,1A,A8,00,00,31,
262883241,00000133,false,Rx,0,5,00,00,00,00,98,00,00,00,
262884318,00000136,false,Rx,0,8,00,02,00,00,00,00,00,1B,
262884326,0000013A,false,Rx,0,8,00,00,00,00,00,00,00,19,
262884333,0000013F,false,Rx,0,8,00,00,00,05,00,00,00,1F,
262884340,0000017C,false,Rx,0,8,00,00,00,00,10,00,00,12,
262885418,0000018E,false,Rx,0,3,00,00,5C,00,00,00,00,00,
262886490,00000183,false,Rx,0,8,00,00,00,0B,00,00,10,1F,
262887563,00000143,false,Rx,0,4,6B,6B,00,D1,00,00,00,00,
262887572,00000039,false,Rx,0,2,00,39,00,00,00,00,00,00,
262888646,00000095,false,Rx,0,8,80,00,07,F4,00,00,00,08,
262891866,00000166,false,Rx,0,4,D0,32,00,18,00,00,00,00,
262892947,00000158,false,Rx,0,8,00,00,00,00,00,00,00,19,
262892956,00000161,false,Rx,0,8,00,00,05,50,01,08,00,1C,
262892962,00000191,false,Rx,0,7,01,00,10,A1,41,00,0B,00,
262892967,00000164,false,Rx,0,8,00,00,C0,1A,A8,00,00,04,
262894041,00000133,false,Rx,0,5,00,00,00,00,A7,00,00,00,
262894049,00000136,false,Rx,0,8,00,02,00,00,00,00,00,2A,
262894055,0000013A,false,Rx,0,8,00,00,00,00,00,00,00,28,
262894060,0000013F,false,Rx,0,8,00,00,00,05,00,00,00,2E,
262895137,0000017C,false,Rx,0,8,00,00,00,00,10,00,00,21,
262895145,0000018E,false,Rx,0,3,00,00,6B,00,00,00,00,00,
262895151,000001CF,false,Rx,0,6,80,05,00,00,00,3C,00,00,
262895157,000001DC,false,Rx,0,4,02,00,00,39,00,00,00,00,
262896219,00000183,false,Rx,0,8,00,00,00,08,00,00,10,21,
262897295,00000143,false,Rx,0,4,6B,6B,00,E0,00,00,00,00,
262897301,00000333,false,Rx,0,7,00,00,00,00,00,00,0F,00,
262898375,00000095,false,Rx,0,8,80,00,07,F4,00,00,00,17,
262899456,000001A4,false,Rx,0,8,00,00,00,08,00,00,00,10,
262899465,000001AA,false,Rx,0,8,7F,FF,00,00,00,00,68,10,
262900543,000001B0,false,Rx,0,7,00,0F,00,00,00,01,57,00,
262900552,000001D0,false,Rx,0,8,00,00,00,00,00,00,00,0A,
262901631,00000166,false,Rx,0,4,D0,32,00,27,00,00,00,00,
262901639,00000039,false,Rx,0,2,00,0C,00,00,00,00,00,00,
262902714,00000158,false,Rx,0,8,00,00,00,00,00,00,00,28,
262902722,00000161,false,Rx,0,8,00,00,05,50,01,08,00,2B,
262902729,00000191,false,Rx,0,7,01,00,10,A1,41,00,1A,00,
262903806,00000133,false,Rx,0,5,00,00,00,00,B6,00,00,00,
262903814,00000136,false,Rx,0,8,00,02,00,00,00,00,00,39,
262903821,0000013A,false,Rx,0,8,00,00,00,00,00,00,00,37,
262903826,0000013F,false,Rx,0,8,00,00,00,05,00,00,00,3D,
262904898,00000164,false,Rx,0,8,00,00,C0,1A,A8,00,00,13,
262904906,0000017C,false,Rx,0,8,00,00,00,00,10,00,00,30,
262904912,0000018E,false,Rx,0,3,00,00,7A,00,00,00,00,00,
262904918,00000294,false,Rx,0,8,04,0B,00,02,CF,5A,00,2C,
262905992,0000021E,false,Rx,0,7,03,E8,37,45,22,06,2F,00,
262906002,00000183,false,Rx,0,8,00,00,00,06,00,00,10,32,
262907082,00000143,false,Rx,0,4,6B,6B,00,FF,00,00,00,00,
262909229,00000095,false,Rx,0,8,80,00,07,F4,00,00,00,26,
262911374,00000166,false,Rx,0,4,D0,32,00,36,00,00,00,00,
262912457,00000158,false,Rx,0,8,00,00,00,00,00,00,00,37,
262913534,00000161,false,Rx,0,8,00,00,05,50,01,08,00,3A,
262913541,00000191,false,Rx,0,7,01,00,10,A1,41,00,29,00,
262913546,00000164,false,Rx,0,8,00,00,C0,1A,A8,00,00,22,
262913550,00000133,false,Rx,0,5,00,00,00,00,89,00,00,00,
262913555,00000136,false,Rx,0,8,00,02,00,00,00,00,00,0C,
262914627,0000013A,false,Rx,0,8,00,00,00,00,00,00,00,0A,
262914633,0000013F,false,Rx,0,8,00,00,00,05,00,00,00,00,
262914637,0000017C,false,Rx,0,8,00,00,00,00,10,00,00,03,
262914640,0000018E,false,Rx,0,3,00,00,4D,00,00,00,00,00,
262914645,000001CF,false,Rx,0,6,80,05,00,00,00,0F,00,00,
262915721,000001DC,false,Rx,0,4,02,00,00,0C,00,00,00,00,
262915729,00000320,false,Rx,0,3,00,00,03,00,00,00,00,00,
262915736,00000324,false,Rx,0,8,74,65,00,00,00,00,0E,0B,
262915741,00000183,false,Rx,0,8,00,00,00,04,00,00,10,07,
262915747,0000037C,false,Rx,0,8,FD,00,FD,00,09,7F,00,0B,
262916820,00000143,false,Rx,0,4,6B,6B,00,C2,00,00,00,00,
262918963,00000095,false,Rx,0,8,80,00,07,F4,00,00,00,35,
262920035,000001A4,false,Rx,0,8,00,00,00,08,00,00,00,2F,
262920040,000001AA,false,Rx,0,8,7F,FF,00,00,00,00,68,2F,
262920045,000001B0,false,Rx,0,7,00,0F,00,00,00,01,66,00,
262920050,000001D0,false,Rx,0,8,00,00,00,00,00,00,00,0A,
262921122,00000039,false,Rx,0,2,00,1B,00,00,00,00,00,00,
262921127,00000166,false,Rx,0,4,D0,32,00,09,00,00,00,00,
262923279,00000158,false,Rx,0,8,00,00,00,00,00,00,00,0A,
262923286,00000161,false,Rx,0,8,00,00,05,50,01,08,00,0D,
262923290,00000191,false,Rx,0,7,01,00,10,A1,41,00,38,00,
262923295,00000133,false,Rx,0,5,00,00,00,00,98,00,00,00,
262924366,00000136,false,Rx,0,8,00,02,00,00,00,00,00,1B,
262924380,0000013A,false,Rx,0,8,00,00,00,00,00,00,00,19,
262924384,0000013F,false,Rx,0,8,00,00,00,05,00,00,00,1F,
262924387,00000164,false,Rx,0,8,00,00,C0,1A,A8,00,00,31,
262924390,0000017C,false,Rx,0,8,00,00,00,00,10,00,00,12,
262925462,0000018E,false,Rx,0,3,00,00,5C,00,00,00,00,00,
262926535,00000183,false,Rx,0,8,00,00,00,03,00,00,10,17,
